time	V(n001)	V(n003)
0.000000000000000e+00	0.000000e+00	0.000000e+00
3.327798006159689e-08	2.094680e-05	-1.441973e-12
6.655596012319377e-08	4.189361e-05	4.230205e-13
9.983394018479065e-08	6.284042e-05	5.594981e-12
1.331119202463875e-07	8.378723e-05	1.407391e-11
1.663899003079844e-07	1.047340e-04	2.585980e-11
1.996678803695813e-07	1.256808e-04	4.095266e-11
2.329458604311781e-07	1.466277e-04	5.935249e-11
3.026855585779300e-07	1.905253e-04	1.289492e-10
4.017002817227400e-07	2.528500e-04	3.000745e-10
5.258647960269521e-07	3.310053e-04	6.719826e-10
6.965215861887416e-07	4.384252e-04	1.555599e-09
9.152043065369364e-07	5.760749e-04	3.517413e-09
1.210751690957099e-06	7.621070e-04	8.102139e-09
1.595501759543755e-06	1.004288e-03	1.843175e-08
2.112059198401513e-06	1.329434e-03	4.240020e-08
2.792449989969132e-06	1.757705e-03	9.696923e-08
3.706118649088143e-06	2.332812e-03	2.234749e-07
4.923810877439434e-06	3.099285e-03	5.143860e-07
6.570865242673257e-06	4.136016e-03	1.192382e-06
8.801900973434361e-06	5.540324e-03	2.773005e-06
1.187251575919287e-05	7.473079e-03	6.511009e-06
1.614875157902452e-05	1.016465e-02	1.544406e-05
2.225221677220662e-05	1.400619e-02	3.730677e-05
3.122977530976554e-05	1.965630e-02	9.254576e-05
4.511586028787508e-05	2.839434e-02	2.384273e-04
6.666722268459561e-05	4.195134e-02	6.165240e-04
9.910123373986112e-05	6.233878e-02	1.562022e-03
1.557593938919374e-04	9.788568e-02	4.366918e-03
2.690757141960899e-04	1.685610e-01	1.407772e-02
4.957083548043949e-04	3.069849e-01	4.552720e-02
8.085765394989198e-04	4.872677e-01	1.094796e-01
1.251839906410298e-03	7.089230e-01	2.274508e-01
1.790716992646776e-03	9.031994e-01	3.902891e-01
2.019915051777252e-03	9.555249e-01	4.614680e-01
2.189424955984791e-03	9.814976e-01	5.124286e-01
2.359848684386955e-03	9.963564e-01	5.601078e-01
2.594712937054788e-03	9.980510e-01	6.193920e-01
2.806735167903204e-03	9.808726e-01	6.639700e-01
3.150767009423595e-03	9.161405e-01	7.119678e-01
3.700634526398121e-03	7.258230e-01	7.244974e-01
4.537010546490619e-03	2.818998e-01	6.196644e-01
5.221423105448850e-03	-1.445217e-01	4.305941e-01
5.912648606605554e-03	-5.481252e-01	1.617046e-01
6.536479371054315e-03	-8.264603e-01	-1.089632e-01
6.866202768860146e-03	-9.247337e-01	-2.517000e-01
7.072865744881016e-03	-9.662930e-01	-3.364657e-01
7.226960260308744e-03	-9.866828e-01	-3.953413e-01
7.407237985967001e-03	-9.987549e-01	-4.587208e-01
7.606764826868142e-03	-9.971372e-01	-5.215783e-01
7.831972583324085e-03	-9.764524e-01	-5.804909e-01
8.197048284767132e-03	-9.016446e-01	-6.448725e-01
8.778479451180939e-03	-6.871623e-01	-6.682580e-01
9.653408561951328e-03	-2.053801e-01	-5.611397e-01
1.031504595083926e-02	2.080836e-01	-3.763928e-01
1.098631474005672e-02	5.908766e-01	-1.145825e-01
1.164562893268534e-02	8.660017e-01	1.679507e-01
1.191875004763621e-02	9.387780e-01	2.834879e-01
1.210940790832919e-02	9.732726e-01	3.595284e-01
1.226594807887475e-02	9.911438e-01	4.177608e-01
1.242664809800221e-02	9.994869e-01	4.728716e-01
1.260834970794210e-02	9.966121e-01	5.287176e-01
1.284017725160674e-02	9.740613e-01	5.877356e-01
1.321578568473518e-02	8.939614e-01	6.508719e-01
1.381285496675039e-02	6.670807e-01	6.686925e-01
1.469176121675039e-02	1.761325e-01	5.515887e-01
1.534732444268400e-02	-2.334146e-01	3.628199e-01
1.601251399914504e-02	-6.085969e-01	1.004414e-01
1.668599363845851e-02	-8.811139e-01	-1.884913e-01
1.693657158873946e-02	-9.444571e-01	-2.939555e-01
1.712035675436680e-02	-9.760773e-01	-3.666409e-01
1.728175086132078e-02	-9.930949e-01	-4.261338e-01
1.743976660007580e-02	-9.998358e-01	-4.798362e-01
1.760758538440000e-02	-9.961733e-01	-5.308760e-01
1.784455877756880e-02	-9.721231e-01	-5.903643e-01
1.822833899533035e-02	-8.878042e-01	-6.530147e-01
1.883746405137848e-02	-6.511800e-01	-6.671349e-01
1.971637030137848e-02	-1.552802e-01	-5.436051e-01
2.037039062776179e-02	2.529824e-01	-3.513555e-01
2.103242278597821e-02	6.229260e-01	-8.814894e-02
2.163203562296119e-02	8.673752e-01	1.700560e-01
2.190153476456740e-02	9.389411e-01	2.840676e-01
2.209199892176818e-02	9.733533e-01	3.599697e-01
2.224867544404470e-02	9.912018e-01	4.182186e-01
2.240883539561347e-02	9.994901e-01	4.731143e-01
2.259043969373555e-02	9.966092e-01	5.289018e-01
2.282230333344129e-02	9.740479e-01	5.879009e-01
2.319796913703031e-02	8.939188e-01	6.510046e-01
2.379512329466230e-02	6.669700e-01	6.687648e-01
2.467402954466229e-02	1.759863e-01	5.515866e-01
2.532945057191105e-02	-2.334720e-01	3.628208e-01
2.599460827354731e-02	-6.086278e-01	1.004351e-01
2.666818326601397e-02	-8.811607e-01	-1.885447e-01
2.691871732961348e-02	-9.444805e-01	-2.939901e-01
2.710247354347710e-02	-9.760889e-01	-3.666626e-01
2.726388816773218e-02	-9.931026e-01	-4.261608e-01
2.742198541665701e-02	-9.998379e-01	-4.798887e-01
2.758968705452491e-02	-9.961695e-01	-5.308896e-01
2.782670384119944e-02	-9.721065e-01	-5.903823e-01
2.821055290920932e-02	-8.877515e-01	-6.530290e-01
2.881977924749092e-02	-6.510448e-01	-6.671183e-01
2.969868549749092e-02	-1.551043e-01	-5.435352e-01
3.035270109601937e-02	2.531517e-01	-3.512540e-01
3.101472702336455e-02	6.230599e-01	-8.803336e-02
3.161413876573892e-02	8.673974e-01	1.700882e-01
3.188359107162392e-02	9.389462e-01	2.840791e-01
3.207404905959159e-02	9.733559e-01	3.599778e-01
3.223072992494888e-02	9.912036e-01	4.182279e-01
3.239087267345205e-02	9.994901e-01	4.731172e-01
3.257247387174142e-02	9.966091e-01	5.289033e-01
3.280433866126674e-02	9.740475e-01	5.879024e-01
3.318000629234909e-02	8.939174e-01	6.510057e-01
3.377716315357603e-02	6.669665e-01	6.687651e-01
3.465606940357603e-02	1.759816e-01	5.515851e-01
3.531148920786259e-02	-2.334758e-01	3.628188e-01
3.597664586998421e-02	-6.086304e-01	1.004330e-01
3.665022347644585e-02	-8.811631e-01	-1.885479e-01
3.690075534456593e-02	-9.444817e-01	-2.939923e-01
3.708451011004782e-02	-9.760895e-01	-3.666641e-01
3.724592576074558e-02	-9.931030e-01	-4.261626e-01
3.740402708749917e-02	-9.998381e-01	-4.798917e-01
3.757172286469717e-02	-9.961693e-01	-5.308906e-01
3.780874182227596e-02	-9.721056e-01	-5.903835e-01
3.819259433472152e-02	-8.877489e-01	-6.530299e-01
3.880182573981463e-02	-6.510381e-01	-6.671176e-01
3.968073198981463e-02	-1.550955e-01	-5.435318e-01
4.033474698640147e-02	2.531600e-01	-3.512491e-01
4.099677219995229e-02	6.230662e-01	-8.802794e-02
4.159617424292077e-02	8.673984e-01	1.700896e-01
4.186562447196329e-02	9.389464e-01	2.840796e-01
4.205608218743483e-02	9.733560e-01	3.599782e-01
4.221276324462740e-02	9.912037e-01	4.182283e-01
4.237290523326447e-02	9.994902e-01	4.731173e-01
4.255450629463288e-02	9.966091e-01	5.289034e-01
4.278637113494622e-02	9.740474e-01	5.879024e-01
4.316203884674971e-02	8.939173e-01	6.510058e-01
4.375919582739550e-02	6.669663e-01	6.687651e-01
4.463810207739550e-02	1.759814e-01	5.515851e-01
4.529352184884822e-02	-2.334760e-01	3.628187e-01
4.595867846569243e-02	-6.086305e-01	1.004329e-01
4.663225618532282e-02	-8.811631e-01	-1.885481e-01
4.688278795101842e-02	-9.444818e-01	-2.939924e-01
4.706654264892968e-02	-9.760895e-01	-3.666641e-01
4.722795834751359e-02	-9.931030e-01	-4.261626e-01
4.738605986450829e-02	-9.998381e-01	-4.798918e-01
4.755375536829106e-02	-9.961693e-01	-5.308906e-01
4.779077442714805e-02	-9.721056e-01	-5.903836e-01
4.817462710028523e-02	-8.877488e-01	-6.530299e-01
4.878385874175759e-02	-6.510378e-01	-6.671176e-01
4.966276499175758e-02	-1.550951e-01	-5.435317e-01
5.031677995878386e-02	2.531604e-01	-3.512489e-01
5.097880513741210e-02	6.230665e-01	-8.802769e-02
5.157820672935062e-02	8.673984e-01	1.700897e-01
5.184765686264033e-02	9.389465e-01	2.840797e-01
5.203811456552589e-02	9.733560e-01	3.599782e-01
5.219479563157890e-02	9.912037e-01	4.182283e-01
5.235493758511947e-02	9.994902e-01	4.731173e-01
5.253653864016380e-02	9.966091e-01	5.289034e-01
5.276840348282292e-02	9.740474e-01	5.879024e-01
5.314407119835474e-02	8.939173e-01	6.510058e-01
5.374122818451620e-02	6.669663e-01	6.687651e-01
5.462013443451620e-02	1.759814e-01	5.515851e-01
5.527555420454963e-02	-2.334760e-01	3.628187e-01
5.594071081930675e-02	-6.086305e-01	1.004329e-01
5.661428854415430e-02	-8.811632e-01	-1.885481e-01
5.686482030509361e-02	-9.444818e-01	-2.939924e-01
5.704857499986709e-02	-9.760895e-01	-3.666642e-01
5.720999070067470e-02	-9.931030e-01	-4.261627e-01
5.736809222650366e-02	-9.998381e-01	-4.798918e-01
5.753578771758981e-02	-9.961693e-01	-5.308906e-01
5.777280678114988e-02	-9.721056e-01	-5.903836e-01
5.815665946174913e-02	-8.877488e-01	-6.530299e-01
5.876589111419828e-02	-6.510378e-01	-6.671176e-01
5.964479736419828e-02	-1.550951e-01	-5.435317e-01
6.029881232984546e-02	2.531604e-01	-3.512489e-01
6.096083750684501e-02	6.230665e-01	-8.802768e-02
6.156023907784531e-02	8.673984e-01	1.700897e-01
6.182968920669354e-02	9.389465e-01	2.840797e-01
6.202014690899516e-02	9.733560e-01	3.599782e-01
6.217682797545925e-02	9.912037e-01	4.182283e-01
6.233696992737148e-02	9.994902e-01	4.731173e-01
6.251857098212239e-02	9.966091e-01	5.289034e-01
6.275043582489036e-02	9.740474e-01	5.879024e-01
6.312610354059515e-02	8.939173e-01	6.510058e-01
6.372326052701253e-02	6.669663e-01	6.687651e-01
6.460216677701254e-02	1.759814e-01	5.515851e-01
6.525758654698056e-02	-2.334760e-01	3.628187e-01
6.592274316164087e-02	-6.086305e-01	1.004329e-01
6.659632088673045e-02	-8.811632e-01	-1.885481e-01
6.684685264744895e-02	-9.444818e-01	-2.939924e-01
6.703060734207676e-02	-9.760895e-01	-3.666642e-01
6.719202304298760e-02	-9.931030e-01	-4.261627e-01
6.735012456922668e-02	-9.998381e-01	-4.798918e-01
6.751782005972341e-02	-9.961693e-01	-5.308906e-01
6.775483912350182e-02	-9.721056e-01	-5.903836e-01
6.813869180444747e-02	-8.877488e-01	-6.530299e-01
6.874792345740618e-02	-6.510378e-01	-6.671176e-01
6.962682970740619e-02	-1.550951e-01	-5.435317e-01
7.028084467298930e-02	2.531604e-01	-3.512489e-01
7.094286984991317e-02	6.230665e-01	-8.802768e-02
7.154227141994154e-02	8.673984e-01	1.700897e-01
7.181172154858362e-02	9.389465e-01	2.840797e-01
7.200217925085813e-02	9.733560e-01	3.599782e-01
7.215886031734130e-02	9.912037e-01	4.182283e-01
7.231900226917795e-02	9.994902e-01	4.731173e-01
7.250060332391525e-02	9.966091e-01	5.289034e-01
7.273246816668827e-02	9.740474e-01	5.879024e-01
7.310813588240110e-02	8.939173e-01	6.510058e-01
7.370529286883036e-02	6.669663e-01	6.687651e-01
7.458419911883037e-02	1.759814e-01	5.515851e-01
7.523961888879534e-02	-2.334760e-01	3.628187e-01
7.590477550345111e-02	-6.086305e-01	1.004329e-01
7.657835322855185e-02	-8.811632e-01	-1.885481e-01
7.682888498926013e-02	-9.444818e-01	-2.939924e-01
7.701263968388120e-02	-9.760895e-01	-3.666642e-01
7.717405538479681e-02	-9.931030e-01	-4.261627e-01
7.733215691105484e-02	-9.998381e-01	-4.798918e-01
7.749985240152432e-02	-9.961693e-01	-5.308906e-01
7.773687146531282e-02	-9.721056e-01	-5.903836e-01
7.812072414627448e-02	-8.877488e-01	-6.530299e-01
7.872995579925675e-02	-6.510378e-01	-6.671176e-01
7.960886204925675e-02	-1.550951e-01	-5.435317e-01
8.026287701483689e-02	2.531604e-01	-3.512489e-01
8.092490219175726e-02	6.230665e-01	-8.802768e-02
8.152430376174069e-02	8.673984e-01	1.700897e-01
8.179375389037326e-02	9.389465e-01	2.840797e-01
8.198421159264652e-02	9.733560e-01	3.599782e-01
8.214089265913056e-02	9.912037e-01	4.182283e-01
8.230103461096373e-02	9.994902e-01	4.731173e-01
8.248263566570041e-02	9.966091e-01	5.289034e-01
8.271450050847365e-02	9.740474e-01	5.879024e-01
8.309016822418684e-02	8.939173e-01	6.510058e-01
8.368732521061664e-02	6.669663e-01	6.687651e-01
8.456623146061665e-02	1.759814e-01	5.515851e-01
8.522165123058145e-02	-2.334760e-01	3.628187e-01
8.588680784523700e-02	-6.086305e-01	1.004329e-01
8.656038557033836e-02	-8.811632e-01	-1.885481e-01
8.681091733104618e-02	-9.444818e-01	-2.939924e-01
8.699467202566694e-02	-9.760895e-01	-3.666642e-01
8.715608772658277e-02	-9.931030e-01	-4.261627e-01
8.731418925284171e-02	-9.998381e-01	-4.798918e-01
8.748188474330990e-02	-9.961693e-01	-5.308906e-01
8.771890380709887e-02	-9.721056e-01	-5.903836e-01
8.810275648806132e-02	-8.877488e-01	-6.530299e-01
8.871198814104474e-02	-6.510378e-01	-6.671176e-01
8.959089439104474e-02	-1.550951e-01	-5.435317e-01
9.024490935662474e-02	2.531604e-01	-3.512489e-01
9.090693453354493e-02	6.230665e-01	-8.802768e-02
9.150633610352618e-02	8.673984e-01	1.700897e-01
9.177578623215828e-02	9.389465e-01	2.840797e-01
9.196624393443147e-02	9.733560e-01	3.599782e-01
9.212292500091555e-02	9.912037e-01	4.182283e-01
9.228306695274856e-02	9.994902e-01	4.731173e-01
9.246466800748521e-02	9.966091e-01	5.289034e-01
9.269653285025846e-02	9.740474e-01	5.879024e-01
9.307220056597168e-02	8.939173e-01	6.510058e-01
9.366935755240151e-02	6.669663e-01	6.687651e-01
9.454826380240151e-02	1.759814e-01	5.515851e-01
9.520368357236633e-02	-2.334760e-01	3.628187e-01
9.586884018702191e-02	-6.086305e-01	1.004329e-01
9.654241791212320e-02	-8.811632e-01	-1.885481e-01
9.679294967283099e-02	-9.444818e-01	-2.939924e-01
9.697670436745173e-02	-9.760895e-01	-3.666642e-01
9.713812006836757e-02	-9.931030e-01	-4.261627e-01
9.729622159462653e-02	-9.998381e-01	-4.798918e-01
9.746391708509469e-02	-9.961693e-01	-5.308906e-01
9.770093614888367e-02	-9.721056e-01	-5.903836e-01
9.808478882984611e-02	-8.877488e-01	-6.530299e-01
9.869402048282953e-02	-6.510378e-01	-6.671176e-01
9.957292673282954e-02	-1.550951e-01	-5.435317e-01
1.002269416984096e-01	2.531604e-01	-3.512489e-01
1.008889668753298e-01	6.230665e-01	-8.802768e-02
1.014883684453110e-01	8.673984e-01	1.700897e-01
1.017578185739431e-01	9.389465e-01	2.840797e-01
1.019482762762163e-01	9.733560e-01	3.599782e-01
1.021049573427004e-01	9.912037e-01	4.182283e-01
1.022650992945334e-01	9.994902e-01	4.731173e-01
1.024467003492700e-01	9.966091e-01	5.289034e-01
1.026785651920433e-01	9.740474e-01	5.879024e-01
1.030542329077565e-01	8.939173e-01	6.510058e-01
1.036513898941863e-01	6.669663e-01	6.687651e-01
1.045302961441863e-01	1.759814e-01	5.515851e-01
1.051857159141512e-01	-2.334760e-01	3.628187e-01
1.058508725288067e-01	-6.086305e-01	1.004329e-01
1.065244502539081e-01	-8.811632e-01	-1.885481e-01
1.067749820146159e-01	-9.444818e-01	-2.939924e-01
1.069587367092366e-01	-9.760895e-01	-3.666642e-01
1.071201524101524e-01	-9.931030e-01	-4.261627e-01
1.072782539364114e-01	-9.998381e-01	-4.798918e-01
1.074459494268795e-01	-9.961693e-01	-5.308906e-01
1.076829684906685e-01	-9.721056e-01	-5.903836e-01
1.080668211716310e-01	-8.877488e-01	-6.530299e-01
1.086760528246145e-01	-6.510378e-01	-6.671176e-01
1.095549590746145e-01	-1.550951e-01	-5.435317e-01
1.102089740401945e-01	2.531604e-01	-3.512489e-01
1.108709992171147e-01	6.230665e-01	-8.802768e-02
1.114704007870958e-01	8.673984e-01	1.700897e-01
1.117398509157279e-01	9.389465e-01	2.840797e-01
1.119303086180011e-01	9.733560e-01	3.599782e-01
1.120869896844851e-01	9.912037e-01	4.182283e-01
1.122471316363182e-01	9.994902e-01	4.731173e-01
1.124287326910548e-01	9.966091e-01	5.289034e-01
1.126605975338280e-01	9.740474e-01	5.879024e-01
1.130362652495413e-01	8.939173e-01	6.510058e-01
1.136334222359711e-01	6.669663e-01	6.687651e-01
1.145123284859711e-01	1.759814e-01	5.515851e-01
1.151677482559359e-01	-2.334760e-01	3.628187e-01
1.158329048705915e-01	-6.086305e-01	1.004329e-01
1.165064825956928e-01	-8.811632e-01	-1.885481e-01
1.167570143564006e-01	-9.444818e-01	-2.939924e-01
1.169407690510213e-01	-9.760895e-01	-3.666642e-01
1.171021847519372e-01	-9.931030e-01	-4.261627e-01
1.172602862781962e-01	-9.998381e-01	-4.798918e-01
1.174279817686643e-01	-9.961693e-01	-5.308906e-01
1.176650008324533e-01	-9.721056e-01	-5.903836e-01
1.180488535134158e-01	-8.877488e-01	-6.530299e-01
1.186580851663993e-01	-6.510378e-01	-6.671176e-01
1.195369914163993e-01	-1.550951e-01	-5.435317e-01
1.201910063819793e-01	2.531604e-01	-3.512489e-01
1.208530315588995e-01	6.230665e-01	-8.802768e-02
1.214524331288807e-01	8.673984e-01	1.700897e-01
1.217218832575127e-01	9.389465e-01	2.840797e-01
1.219123409597859e-01	9.733560e-01	3.599782e-01
1.220690220262700e-01	9.912037e-01	4.182283e-01
1.222291639781029e-01	9.994902e-01	4.731173e-01
1.224107650328396e-01	9.966091e-01	5.289034e-01
1.226426298756128e-01	9.740474e-01	5.879024e-01
1.230182975913260e-01	8.939173e-01	6.510058e-01
1.236154545777558e-01	6.669663e-01	6.687651e-01
1.244943608277558e-01	1.759814e-01	5.515851e-01
1.251497805977206e-01	-2.334760e-01	3.628187e-01
1.258149372123762e-01	-6.086305e-01	1.004329e-01
1.264885149374775e-01	-8.811632e-01	-1.885481e-01
1.267390466981853e-01	-9.444818e-01	-2.939924e-01
1.269228013928061e-01	-9.760895e-01	-3.666642e-01
1.270842170937219e-01	-9.931030e-01	-4.261627e-01
1.272423186199809e-01	-9.998381e-01	-4.798918e-01
1.274100141104491e-01	-9.961693e-01	-5.308906e-01
1.276470331742381e-01	-9.721056e-01	-5.903836e-01
1.280308858552005e-01	-8.877488e-01	-6.530299e-01
1.286401175081840e-01	-6.510378e-01	-6.671176e-01
1.295190237581840e-01	-1.550951e-01	-5.435317e-01
1.301730387237640e-01	2.531604e-01	-3.512489e-01
1.308350639006842e-01	6.230665e-01	-8.802768e-02
1.314344654706653e-01	8.673984e-01	1.700897e-01
1.317039155992974e-01	9.389465e-01	2.840797e-01
1.318943733015706e-01	9.733560e-01	3.599782e-01
1.320510543680547e-01	9.912037e-01	4.182283e-01
1.322111963198877e-01	9.994902e-01	4.731173e-01
1.323927973746244e-01	9.966091e-01	5.289034e-01
1.326246622173976e-01	9.740474e-01	5.879024e-01
1.330003299331109e-01	8.939173e-01	6.510058e-01
1.335974869195407e-01	6.669663e-01	6.687651e-01
1.344763931695407e-01	1.759814e-01	5.515851e-01
1.351318129395055e-01	-2.334760e-01	3.628187e-01
1.357969695541611e-01	-6.086305e-01	1.004329e-01
1.364705472792624e-01	-8.811632e-01	-1.885481e-01
1.367210790399702e-01	-9.444818e-01	-2.939924e-01
1.369048337345909e-01	-9.760895e-01	-3.666642e-01
1.370662494355067e-01	-9.931030e-01	-4.261627e-01
1.372243509617657e-01	-9.998381e-01	-4.798918e-01
1.373920464522339e-01	-9.961693e-01	-5.308906e-01
1.376290655160228e-01	-9.721056e-01	-5.903836e-01
1.380129181969853e-01	-8.877488e-01	-6.530299e-01
1.386221498499687e-01	-6.510378e-01	-6.671176e-01
1.395010560999687e-01	-1.550951e-01	-5.435317e-01
1.401550710655487e-01	2.531604e-01	-3.512489e-01
1.408170962424690e-01	6.230665e-01	-8.802768e-02
1.414164978124502e-01	8.673984e-01	1.700897e-01
1.416859479410823e-01	9.389465e-01	2.840797e-01
1.418764056433555e-01	9.733560e-01	3.599782e-01
1.420330867098396e-01	9.912037e-01	4.182283e-01
1.421932286616725e-01	9.994902e-01	4.731173e-01
1.423748297164091e-01	9.966091e-01	5.289034e-01
1.426066945591824e-01	9.740474e-01	5.879024e-01
1.429823622748956e-01	8.939173e-01	6.510058e-01
1.435795192613254e-01	6.669663e-01	6.687651e-01
1.444584255113254e-01	1.759814e-01	5.515851e-01
1.451138452812903e-01	-2.334760e-01	3.628187e-01
1.457790018959458e-01	-6.086305e-01	1.004329e-01
1.464525796210472e-01	-8.811632e-01	-1.885481e-01
1.467031113817549e-01	-9.444818e-01	-2.939924e-01
1.468868660763757e-01	-9.760895e-01	-3.666642e-01
1.470482817772915e-01	-9.931030e-01	-4.261627e-01
1.472063833035505e-01	-9.998381e-01	-4.798918e-01
1.473740787940186e-01	-9.961693e-01	-5.308906e-01
1.476110978578076e-01	-9.721056e-01	-5.903836e-01
1.479949505387700e-01	-8.877488e-01	-6.530299e-01
1.486041821917534e-01	-6.510378e-01	-6.671176e-01
1.494830884417535e-01	-1.550951e-01	-5.435317e-01
1.501371034073335e-01	2.531604e-01	-3.512489e-01
1.507991285842536e-01	6.230665e-01	-8.802768e-02
1.513985301542348e-01	8.673984e-01	1.700897e-01
1.516679802828670e-01	9.389465e-01	2.840797e-01
1.518584379851401e-01	9.733560e-01	3.599782e-01
1.520151190516242e-01	9.912037e-01	4.182283e-01
1.521752610034573e-01	9.994902e-01	4.731173e-01
1.523568620581939e-01	9.966091e-01	5.289034e-01
1.525887269009672e-01	9.740474e-01	5.879024e-01
1.529643946166804e-01	8.939173e-01	6.510058e-01
