time	V(n001)	V(n003)
0.000000000000000e+00	0.000000e+00	0.000000e+00
3.650430960240441e-09	8.463507e-05	-5.471513e-14
7.300861920480883e-09	1.692701e-04	9.478924e-14
1.095129288072132e-08	2.539052e-04	4.485131e-13
1.460172384096177e-08	3.385403e-04	1.006457e-12
1.825215480120221e-08	4.231753e-04	1.768619e-12
2.190258576144265e-08	5.078104e-04	2.735002e-12
2.555301672168308e-08	5.924455e-04	3.905604e-12
4.134486118526358e-08	9.585785e-04	1.388878e-11
5.913181929767562e-08	1.370968e-03	3.629173e-11
7.622792829469350e-08	1.767340e-03	7.634945e-11
1.017692665265727e-07	2.359514e-03	1.806344e-10
1.324007527880655e-07	3.069700e-03	3.978537e-10
1.759166388268526e-07	4.078608e-03	9.309317e-10
2.301663893925369e-07	5.336372e-03	2.084211e-09
3.046316940339787e-07	7.062813e-03	4.822446e-09
3.998121962267818e-07	9.269495e-03	1.088946e-08
5.282130007839546e-07	1.224629e-02	2.504978e-08
6.947671727355754e-07	1.610745e-02	5.686404e-08
9.174980033568552e-07	2.127055e-02	1.304673e-07
1.209147536332455e-06	2.803036e-02	2.972773e-07
1.597930272829265e-06	3.703947e-02	6.818084e-07
2.110836746386817e-06	4.892012e-02	1.559016e-06
2.795417982621636e-06	6.476627e-02	3.581800e-06
3.706011886468188e-06	8.581802e-02	8.227757e-06
4.928961752098841e-06	1.140292e-01	1.898977e-05
6.575566862808665e-06	1.518643e-01	4.395394e-05
8.818374850477240e-06	2.030322e-01	1.024387e-04
1.190548860895151e-05	2.725364e-01	2.406399e-04
1.624177111533597e-05	3.677281e-01	5.731349e-04
2.251086542965707e-05	4.985397e-01	1.394665e-03
3.209065417150323e-05	6.772513e-01	3.462031e-03
4.539717171182694e-05	8.686799e-01	7.582671e-03
5.299454172426811e-05	9.420455e-01	1.059136e-02
5.806425516535651e-05	9.748879e-01	1.293561e-02
6.238925594044812e-05	9.922842e-01	1.510055e-02
6.645445863954995e-05	9.995484e-01	1.724344e-02
7.133381503369218e-05	9.965513e-01	1.991854e-02
7.764761869077905e-05	9.737893e-01	2.347283e-02
8.787666560591747e-05	8.930939e-01	2.918140e-02
1.041333131978888e-04	6.648303e-01	3.723676e-02
1.284421055531904e-04	1.629386e-01	4.593970e-02
1.482096879870227e-04	-2.903974e-01	4.889858e-02
1.650004592189098e-04	-6.318482e-01	4.734942e-02
1.820409033800247e-04	-8.814942e-01	4.254128e-02
1.888341733899886e-04	-9.446476e-01	3.975070e-02
1.938173769265427e-04	-9.761712e-01	3.730359e-02
1.982036022834720e-04	-9.931577e-01	3.498190e-02
2.025115708352015e-04	-9.998527e-01	3.258422e-02
2.070418344306978e-04	-9.961422e-01	2.996494e-02
2.134850150186077e-04	-9.719877e-01	2.614393e-02
2.239194796118201e-04	-8.873761e-01	2.001887e-02
2.404789968968320e-04	-6.500809e-01	1.107262e-02
2.570854920751090e-04	-3.171000e-01	3.825214e-03
2.724235701792336e-04	3.293662e-02	-4.921076e-04
2.860055069139698e-04	3.408672e-01	-1.856907e-03
2.994596544293270e-04	6.129375e-01	-6.305281e-04
3.159880336356683e-04	8.639103e-01	3.514893e-03
3.232196972661376e-04	9.358447e-01	6.196704e-03
3.284895634097999e-04	9.718194e-01	8.583116e-03
3.326736539359988e-04	9.900818e-01	1.065052e-02
3.372970065319902e-04	9.994300e-01	1.307178e-02
3.422769444769848e-04	9.966649e-01	1.579470e-02
3.485534395208816e-04	9.742978e-01	1.933058e-02
3.587231892897024e-04	8.947171e-01	2.502332e-02
3.748921135717260e-04	6.690439e-01	3.308884e-02
3.990986955733770e-04	1.708508e-01	4.187425e-02
4.188908100975834e-04	-2.832547e-01	4.495864e-02
4.356872625789711e-04	-6.261543e-01	4.351869e-02
4.527389298448888e-04	-8.781366e-01	3.880698e-02
4.596173611292368e-04	-9.429656e-01	3.601531e-02
4.646566661881686e-04	-9.753420e-01	3.356190e-02
4.690031656310024e-04	-9.925967e-01	3.127827e-02
4.731533663660261e-04	-9.996740e-01	2.898313e-02
4.779103468777046e-04	-9.964104e-01	2.624824e-02
4.842695225463290e-04	-9.731643e-01	2.249512e-02
4.945706460318645e-04	-8.911044e-01	1.646539e-02
5.109337456280664e-04	-6.596819e-01	7.626618e-03
5.275615404534920e-04	-3.286565e-01	4.106979e-04
5.444224776623444e-04	5.601004e-02	-4.142323e-03
5.597502400049646e-04	3.999047e-01	-5.126124e-03
5.776825287566972e-04	7.360200e-01	-2.609942e-03
5.910616189331470e-04	9.075302e-01	1.422385e-03
5.971653129382234e-04	9.576940e-01	3.954277e-03
6.016868680823989e-04	9.825506e-01	6.119585e-03
6.063637640989902e-04	9.969086e-01	8.529037e-03
6.125580738660062e-04	9.978906e-01	1.188902e-02
6.183824100882833e-04	9.800664e-01	1.516475e-02
6.278314609002350e-04	9.134651e-01	2.050333e-02
6.429240627552561e-04	7.186080e-01	2.829581e-02
6.658350480139296e-04	2.673178e-01	3.733012e-02
6.864703403209379e-04	-2.063272e-01	4.143433e-02
7.035669748020466e-04	-5.681076e-01	4.073856e-02
7.210648086891759e-04	-8.467739e-01	3.652587e-02
7.287080318195617e-04	-9.272868e-01	3.362017e-02
7.342422071082617e-04	-9.675654e-01	3.102626e-02
7.383726635935857e-04	-9.872872e-01	2.890704e-02
7.433022017602731e-04	-9.989727e-01	2.622124e-02
7.485953419990802e-04	-9.970070e-01	2.320842e-02
7.547555476325370e-04	-9.758509e-01	1.959244e-02
7.647403005261310e-04	-8.997025e-01	1.375239e-02
7.806347097044336e-04	-6.820603e-01	5.115264e-03
7.972903877458953e-04	-3.564029e-01	-2.251194e-03
8.141203167496821e-04	2.578314e-02	-6.926221e-03
8.310005833408060e-04	4.051603e-01	-8.088509e-03
8.489382055092382e-04	7.399777e-01	-5.592980e-03
8.619637214885371e-04	9.065481e-01	-1.629347e-03
8.680945249500996e-04	9.572022e-01	9.267540e-04
8.726344763610084e-04	9.823122e-01	3.106850e-03
8.772998712361486e-04	9.967861e-01	5.517496e-03
8.835358969093901e-04	9.979279e-01	8.910420e-03
8.893446288711930e-04	9.802525e-01	1.218750e-02
8.987687430526966e-04	9.140813e-01	1.753029e-02
9.138237800973473e-04	7.202665e-01	2.533858e-02
9.366882089559605e-04	2.706573e-01	3.441214e-02
9.574493357059692e-04	-2.057891e-01	3.859437e-02
9.745719570670296e-04	-5.681510e-01	3.793563e-02
9.920982777032134e-04	-8.471530e-01	3.374587e-02
9.997325381660900e-04	-9.274759e-01	3.085566e-02
1.005261006764686e-03	-9.676595e-01	2.827306e-02
1.009387500056240e-03	-9.873319e-01	2.616254e-02
1.014319675843762e-03	-9.989881e-01	2.348346e-02
1.019603549010708e-03	-9.969971e-01	2.048476e-02
1.025767198146919e-03	-9.758056e-01	1.687718e-02
1.035757432730570e-03	-8.995565e-01	1.105115e-02
1.051659994100356e-03	-6.816775e-01	2.468982e-03
1.069238080307169e-03	-3.358484e-01	-5.195272e-03
1.085980235568016e-03	4.564448e-02	-9.648139e-03
1.103461878139565e-03	4.358400e-01	-1.057284e-02
1.121160463505519e-03	7.586981e-01	-7.875936e-03
1.133050586879950e-03	9.073700e-01	-4.137537e-03
1.139158711514067e-03	9.576138e-01	-1.557270e-03
1.143683274626670e-03	9.825118e-01	6.249476e-04
1.148358287691169e-03	9.968887e-01	3.049458e-03
1.154559422674036e-03	9.978967e-01	6.434409e-03
1.160381206244992e-03	9.800969e-01	9.728631e-03
1.169826178037732e-03	9.135661e-01	1.509732e-02
1.184912636645614e-03	7.188796e-01	2.293890e-02
1.207816014175819e-03	2.678641e-01	3.203762e-02
1.228646232629038e-03	-2.101929e-01	3.622729e-02
1.245775751806177e-03	-5.719814e-01	3.555461e-02
1.263301133344444e-03	-8.496096e-01	3.135220e-02
1.270877176180067e-03	-9.287011e-01	2.848236e-02
1.276368523371778e-03	-9.682696e-01	2.591879e-02
1.280469215291978e-03	-9.876208e-01	2.382434e-02
1.285418599564358e-03	-9.990860e-01	2.114076e-02
1.290642078073611e-03	-9.969324e-01	1.818240e-02
1.296828164665382e-03	-9.755095e-01	1.456969e-02
1.306854111866038e-03	-8.986027e-01	8.738812e-03
1.322809757190711e-03	-6.791790e-01	1.170948e-04
1.339120328501324e-03	-3.602012e-01	-7.054386e-03
1.355925656780466e-03	2.114557e-02	-1.165667e-02
1.373504589838684e-03	4.157014e-01	-1.278008e-02
1.391415783283109e-03	7.472965e-01	-1.019063e-02
1.403993142540976e-03	9.067829e-01	-6.288273e-03
1.410117475402705e-03	9.573198e-01	-3.707935e-03
1.414653037746453e-03	9.823692e-01	-1.516045e-03
1.419321173423211e-03	9.968155e-01	9.100260e-04
1.425547251982925e-03	9.979190e-01	4.315951e-03
1.431359705283779e-03	9.802082e-01	7.612109e-03
1.440789766786593e-03	9.139346e-01	1.298517e-02
1.455853764839570e-03	7.198713e-01	2.083924e-02
1.478729307565532e-03	2.698609e-01	2.996476e-02
1.499654126910878e-03	-2.103104e-01	3.420691e-02
1.516802251647750e-03	-5.724337e-01	3.355617e-02
1.534346987687718e-03	-8.501367e-01	2.936611e-02
1.541910503865559e-03	-9.289641e-01	2.650817e-02
1.547393851596501e-03	-9.684006e-01	2.395376e-02
1.551488978649302e-03	-9.876828e-01	2.186654e-02
1.556442082835914e-03	-9.991064e-01	1.918653e-02
1.561652520927167e-03	-9.969184e-01	1.624162e-02
1.567843451258817e-03	-9.754453e-01	1.263343e-02
1.577877106769246e-03	-8.983962e-01	6.810573e-03
1.593844203796177e-03	-6.786387e-01	-1.796703e-03
1.610138284340889e-03	-3.598715e-01	-8.891428e-03
1.627948053953565e-03	4.477358e-02	-1.363513e-02
1.645491039434468e-03	4.363354e-01	-1.455918e-02
1.663495679559530e-03	7.636570e-01	-1.174292e-02
1.675291577850830e-03	9.096522e-01	-7.981974e-03
1.681336355576420e-03	9.587563e-01	-5.401355e-03
1.685817861128756e-03	9.830649e-01	-3.223078e-03
1.690519916978910e-03	9.971676e-01	-7.692428e-04
1.696623194380240e-03	9.978081e-01	2.580229e-03
1.702481562643343e-03	9.796576e-01	5.911005e-03
1.711984984398348e-03	9.121140e-01	1.133391e-02
1.727159418477022e-03	7.149784e-01	1.923973e-02
1.750171520060754e-03	2.600352e-01	2.837198e-02
1.771094681766934e-03	-2.202238e-01	3.253727e-02
1.788226267039814e-03	-5.804155e-01	3.181374e-02
1.805735167459109e-03	-8.548086e-01	2.757053e-02
1.813187125044721e-03	-9.312962e-01	2.473757e-02
1.818599043180537e-03	-9.695607e-01	2.220975e-02
1.822683763257767e-03	-9.883698e-01	2.012524e-02
1.827744408597015e-03	-9.993759e-01	1.738645e-02
1.832766734666234e-03	-9.967123e-01	1.454905e-02
1.839027501769348e-03	-9.745107e-01	1.090391e-02
1.849172246032042e-03	-8.953979e-01	5.032327e-03
1.865304138399397e-03	-6.708148e-01	-3.618279e-03
1.881587469402994e-03	-3.501944e-01	-1.055690e-02
1.901006137940537e-03	9.231070e-02	-1.541821e-02
1.918498965204878e-03	4.776806e-01	-1.595036e-02
1.936579733865840e-03	7.939110e-01	-1.272532e-02
1.946812149568724e-03	9.145737e-01	-9.307661e-03
1.952718368831721e-03	9.612188e-01	-6.732240e-03
1.957105312219789e-03	9.842533e-01	-4.583179e-03
1.961867427622596e-03	9.977371e-01	-2.085038e-03
1.967754611193784e-03	9.976062e-01	1.157818e-03
1.973693662956211e-03	9.786718e-01	4.543531e-03
1.983325907593728e-03	9.088715e-01	1.004421e-02
1.998693827474250e-03	7.063056e-01	1.802433e-02
2.021943340727419e-03	2.427764e-01	2.714621e-02
2.042802735040128e-03	-2.361455e-01	3.115276e-02
2.059894612548938e-03	-5.929131e-01	3.029772e-02
2.077333089673487e-03	-8.618884e-01	2.596161e-02
2.084614046133596e-03	-9.348337e-01	2.316228e-02
2.089915813371614e-03	-9.713179e-01	2.067116e-02
2.094077541665678e-03	-9.897079e-01	1.853948e-02
2.099241641171353e-03	-9.997152e-01	1.573916e-02
2.103953387356384e-03	-9.963577e-01	1.307482e-02
2.110329328750639e-03	-9.729314e-01	9.363861e-03
2.120657075591979e-03	-8.903649e-01	3.404803e-03
2.137059446559419e-03	-6.577728e-01	-5.326392e-03
2.153336391775285e-03	-3.339374e-01	-1.208085e-02
2.174177731038661e-03	1.422437e-01	-1.691110e-02
2.191714568506032e-03	5.221061e-01	-1.701798e-02
2.209785818377292e-03	8.239233e-01	-1.338129e-02
2.218313865232433e-03	9.191913e-01	-1.040044e-02
2.224087462920469e-03	9.635268e-01	-7.831110e-03
2.228383406155463e-03	9.853619e-01	-5.711606e-03
2.233204175113001e-03	9.982278e-01	-3.170817e-03
2.238881899161100e-03	9.974023e-01	-3.305130e-05
2.244899030252861e-03	9.776958e-01	3.405150e-03
2.254655830512329e-03	9.056813e-01	8.979633e-03
2.270210281798518e-03	6.978238e-01	1.706233e-02
2.292754457560042e-03	2.470832e-01	2.592526e-02
2.313488033381133e-03	-2.289881e-01	2.995289e-02
2.330597811548068e-03	-5.873069e-01	2.916779e-02
2.348063157362217e-03	-8.586657e-01	2.489433e-02
2.355422254095786e-03	-9.332229e-01	2.208761e-02
2.360774455072562e-03	-9.705182e-01	1.958562e-02
2.364900884603931e-03	-9.891043e-01	1.748018e-02
2.370022379401125e-03	-9.995792e-01	1.471116e-02
2.374873545683195e-03	-9.965191e-01	1.197447e-02
2.381197803035425e-03	-9.736460e-01	8.299991e-03
2.391443459910748e-03	-8.926370e-01	2.391275e-03
2.407724656516965e-03	-6.636464e-01	-6.287059e-03
2.423989357253985e-03	-3.415697e-01	-1.303451e-02
2.445570187798145e-03	1.511821e-01	-1.799858e-02
2.463228938331478e-03	5.321867e-01	-1.802926e-02
2.481379138864335e-03	8.316058e-01	-1.427336e-02
2.489491847813030e-03	9.207840e-01	-1.140174e-02
2.495219066938950e-03	9.643222e-01	-8.835963e-03
2.499483074327884e-03	9.857426e-01	-6.725426e-03
2.504324623807902e-03	9.983866e-01	-4.167699e-03
2.509928495653084e-03	9.973285e-01	-1.065087e-03
2.515973128778293e-03	9.773468e-01	2.393908e-03
2.525773775490035e-03	9.045453e-01	7.998034e-03
2.541393760869182e-03	6.948156e-01	1.613725e-02
2.563285974653578e-03	2.576541e-01	2.480055e-02
2.584058513510691e-03	-2.192218e-01	2.892505e-02
2.601216348173159e-03	-5.800747e-01	2.823580e-02
2.618746376950212e-03	-8.548456e-01	2.402971e-02
2.626197445921132e-03	-9.313147e-01	2.121394e-02
2.631608793723092e-03	-9.695699e-01	1.869826e-02
2.635693911703648e-03	-9.883769e-01	1.662250e-02
2.640756324043070e-03	-9.993790e-01	1.389384e-02
2.645776273178109e-03	-9.967096e-01	1.106875e-02
2.652037922313645e-03	-9.744987e-01	7.436735e-03
2.662184069025416e-03	-8.953598e-01	1.586453e-03
2.678318038962818e-03	-6.707156e-01	-7.031125e-03
2.694571452503815e-03	-3.507187e-01	-1.379239e-02
2.716697884789896e-03	1.540460e-01	-1.889256e-02
2.734458020502457e-03	5.366228e-01	-1.889887e-02
2.752697516766334e-03	8.356481e-01	-1.507260e-02
2.760610601847326e-03	9.218302e-01	-1.225195e-02
2.766307172379712e-03	9.648445e-01	-9.689162e-03
2.770550043533845e-03	9.859922e-01	-7.584138e-03
2.775405401897117e-03	9.984877e-01	-5.014590e-03
2.780960298780524e-03	9.972790e-01	-1.934744e-03
2.787023162353804e-03	9.771141e-01	1.538748e-03
2.796852866295199e-03	9.037889e-01	7.163652e-03
2.812516243982946e-03	6.928158e-01	1.534676e-02
2.833846565584506e-03	2.675448e-01	2.383273e-02
2.854781087480488e-03	-2.128803e-01	2.805687e-02
2.872001933596385e-03	-5.759668e-01	2.743324e-02
2.889607031532261e-03	-8.531321e-01	2.325869e-02
2.897099135679724e-03	-9.304591e-01	2.044209e-02
2.902536798308329e-03	-9.691444e-01	1.792179e-02
2.906603566276087e-03	-9.880466e-01	1.586049e-02
2.911584501684270e-03	-9.992282e-01	1.318114e-02
2.916714036536078e-03	-9.968306e-01	1.029923e-02
2.922935010271252e-03	-9.750454e-01	6.695514e-03
2.933016466881416e-03	-8.971114e-01	8.844620e-04
2.949054530263252e-03	-6.752808e-01	-7.691349e-03
2.965298885270363e-03	-3.566884e-01	-1.445317e-02
2.987899344346361e-03	1.585973e-01	-1.964873e-02
3.005747559892323e-03	5.422224e-01	-1.961357e-02
3.024066312389491e-03	8.402799e-01	-1.570303e-02
3.031862138606499e-03	9.240509e-01	-1.289870e-02
3.037493144432677e-03	9.659525e-01	-1.035115e-02
3.041690715074720e-03	9.865206e-01	-8.261097e-03
3.046575817772274e-03	9.986939e-01	-5.669537e-03
3.052025490322428e-03	9.971712e-01	-2.642794e-03
3.058127503257667e-03	9.766101e-01	8.575058e-04
3.068019586283298e-03	9.021549e-01	6.519947e-03
3.083776015784578e-03	6.885057e-01	1.475902e-02
3.104647170949393e-03	2.720568e-01	2.307819e-02
3.125601010479724e-03	-2.087376e-01	2.733899e-02
3.142852220591092e-03	-5.730743e-01	2.675745e-02
3.160493751100766e-03	-8.517260e-01	2.261072e-02
3.168019426038434e-03	-9.297572e-01	1.979298e-02
3.173478582562019e-03	-9.687952e-01	1.726876e-02
3.177556870505594e-03	-9.878694e-01	1.520523e-02
3.182521249057758e-03	-9.991670e-01	1.253836e-02
3.187692196220526e-03	-9.968757e-01	9.636349e-03
3.193897793061998e-03	-9.752504e-01	6.044768e-03
3.203954786113017e-03	-8.977699e-01	2.508950e-04
3.219956540898281e-03	-6.770010e-01	-8.305443e-03
3.236194319579311e-03	-3.590109e-01	-1.505000e-02
3.259232814950432e-03	1.661642e-01	-2.029512e-02
3.277162166313287e-03	5.502217e-01	-2.018938e-02
3.295544786445011e-03	8.462089e-01	-1.617348e-02
3.303201353194952e-03	9.270051e-01	-1.338711e-02
3.308744020558433e-03	9.674250e-01	-1.086221e-02
3.312880373025947e-03	9.872206e-01	-8.793651e-03
3.317805990046815e-03	9.989495e-01	-6.173247e-03
3.323112911924480e-03	9.970216e-01	-3.220178e-03
3.329267996181989e-03	9.759182e-01	3.150351e-04
3.339244595981114e-03	8.999195e-01	6.025889e-03
3.355126878129566e-03	6.826294e-01	1.432771e-02
3.375627109001978e-03	2.725649e-01	2.249414e-02
3.396498562089715e-03	-2.063526e-01	2.674464e-02
3.413756038942371e-03	-5.711939e-01	2.618644e-02
3.431405437684627e-03	-8.506183e-01	2.206332e-02
3.438957498299527e-03	-9.292045e-01	1.924440e-02
3.444433526821541e-03	-9.685202e-01	1.671720e-02
3.448523560734528e-03	-9.877393e-01	1.465059e-02
3.453480072098247e-03	-9.991249e-01	1.199078e-02
3.458678570720968e-03	-9.969055e-01	9.075830e-03
3.464873935562765e-03	-9.753864e-01	5.492774e-03
3.474914647749950e-03	-8.982070e-01	-2.898334e-04
3.490818725653321e-03	-6.793953e-01	-8.796421e-03
3.507058169713653e-03	-3.620139e-01	-1.553762e-02
3.530417596258850e-03	1.703253e-01	-2.083336e-02
3.548405795517594e-03	5.548772e-01	-2.068839e-02
3.566837716585929e-03	8.497751e-01	-1.660604e-02
3.574409824972000e-03	9.287838e-01	-1.383068e-02
3.579898660104577e-03	9.683108e-01	-1.131940e-02
3.583997604681126e-03	9.876403e-01	-9.263766e-03
3.588948156670854e-03	9.990924e-01	-6.625160e-03
3.594167541096823e-03	9.969280e-01	-3.716980e-03
3.600355148433175e-03	9.754893e-01	-1.598134e-04
3.610383515788566e-03	8.985379e-01	5.582856e-03
3.626233983087056e-03	6.808587e-01	1.387533e-02
3.646452683794839e-03	2.765139e-01	2.194261e-02
3.667406241417527e-03	-2.041962e-01	2.623354e-02
3.684695131330216e-03	-5.699826e-01	2.569970e-02
3.702379441754097e-03	-8.502682e-01	2.158560e-02
3.709939831088259e-03	-9.290298e-01	1.876860e-02
3.715421181365561e-03	-9.684332e-01	1.624155e-02
3.719514918613151e-03	-9.876982e-01	1.417477e-02
3.724468952297039e-03	-9.991115e-01	1.151813e-02
3.729676132795129e-03	-9.969149e-01	8.600109e-03
3.735868273076772e-03	-9.754292e-01	5.020912e-03
3.745903854028398e-03	-8.983446e-01	-7.559527e-04
3.761802138198893e-03	-6.797235e-01	-9.246389e-03
3.778329367461816e-03	-3.562042e-01	-1.607293e-02
3.801843435540415e-03	1.799839e-01	-2.131606e-02
3.819839526719094e-03	5.631630e-01	-2.107847e-02
3.838260460155803e-03	8.548684e-01	-1.690654e-02
3.845710984309191e-03	9.313260e-01	-1.414713e-02
3.851121982423739e-03	9.695755e-01	-1.165658e-02
3.855207344374059e-03	9.883813e-01	-9.599268e-03
3.860270840134287e-03	9.993809e-01	-6.892805e-03
3.865289331865533e-03	9.967080e-01	-4.090931e-03
3.871551521809487e-03	9.744915e-01	-4.863142e-04
3.881698528410044e-03	8.953364e-01	5.323035e-03
3.897589538092323e-03	6.748443e-01	1.362248e-02
3.917635037831449e-03	2.725089e-01	2.159193e-02
3.938460646315411e-03	-2.053694e-01	2.582802e-02
3.955734787822783e-03	-5.706862e-01	2.528327e-02
3.973399099039144e-03	-8.504750e-01	2.117158e-02
3.980954570876774e-03	-9.291329e-01	1.835674e-02
3.986432779277406e-03	-9.684846e-01	1.583198e-02
3.990524330228425e-03	-9.877225e-01	1.376708e-02
3.995479826474190e-03	-9.991195e-01	1.111071e-02
4.000681881822779e-03	-9.969094e-01	8.196737e-03
4.006875925668629e-03	-9.754040e-01	4.617921e-03
4.016914535781467e-03	-8.982634e-01	-1.158118e-03
4.032810476669644e-03	-6.796278e-01	-9.631610e-03
4.049675646384913e-03	-3.487499e-01	-1.655973e-02
4.073266869382831e-03	1.895703e-01	-2.172833e-02
4.091252489546166e-03	5.709974e-01	-2.139851e-02
4.109645232401962e-03	8.594307e-01	-1.714659e-02
4.116985826081016e-03	9.336053e-01	-1.440205e-02
4.122326099847824e-03	9.707081e-01	-1.193028e-02
4.126460871228006e-03	9.892484e-01	-9.839771e-03
4.131592434533779e-03	9.996137e-01	-7.089313e-03
4.136410665112162e-03	9.964813e-01	-4.393845e-03
4.142747134458087e-03	9.734780e-01	-7.422528e-04
4.153012192385446e-03	8.921022e-01	5.132777e-03
