time	V(n001)	V(n003)
0.000000000000000e+00	0.000000e+00	0.000000e+00
3.650430959075684e-09	2.293633e-05	-2.946934e-14
7.300861918151368e-09	4.587267e-05	1.381432e-14
1.095129287722705e-08	6.880900e-05	1.298510e-13
1.460172383630274e-08	9.174534e-05	3.186407e-13
1.825215479537842e-08	1.146817e-04	5.801834e-13
2.190258575445410e-08	1.376180e-04	9.144790e-13
2.555301671352978e-08	1.605543e-04	1.321528e-12
5.013003444922399e-08	3.149763e-04	7.520676e-12
7.607787011967846e-08	4.780113e-04	2.213994e-11
1.034468253005587e-07	6.499756e-04	5.215604e-11
1.350235225196717e-07	8.483777e-04	1.145625e-10
1.783841430350751e-07	1.120820e-03	2.632981e-10
2.339757592366317e-07	1.470112e-03	5.935305e-10
3.090228540351707e-07	1.941647e-03	1.364689e-09
4.062294410356612e-07	2.552412e-03	3.095294e-09
5.360659086093281e-07	3.368195e-03	7.095827e-09
7.057267238633116e-07	4.434197e-03	1.614809e-08
9.313777142005163e-07	5.851985e-03	3.698027e-08
1.228074196488761e-06	7.716141e-03	8.438172e-08
1.622402390943680e-06	1.019368e-02	1.933348e-07
2.143832069648518e-06	1.346969e-02	4.424407e-07
2.838642187336198e-06	1.783477e-02	1.015953e-06
3.763998447694770e-06	2.364770e-02	2.334845e-06
5.005475702557234e-06	3.144515e-02	5.387128e-06
6.677591760615918e-06	4.194424e-02	1.247100e-05
8.951943267663196e-06	5.621707e-02	2.905034e-05
1.207711273170364e-05	7.580993e-02	6.819206e-05
1.644421300761357e-05	1.031383e-01	1.620286e-04
2.268441955146763e-05	1.420483e-01	3.918986e-04
3.191655511007479e-05	1.991962e-01	9.759824e-04
4.633768169989931e-05	2.870523e-01	2.513198e-03
6.766396785842862e-05	4.124531e-01	6.212174e-03
9.933126001102446e-05	5.843807e-01	1.475886e-02
1.488762600467187e-04	8.048467e-01	3.309425e-02
1.806205333281119e-04	9.064803e-01	4.754822e-02
2.032501009519045e-04	9.571682e-01	5.922489e-02
2.200072031350577e-04	9.822958e-01	6.836962e-02
2.372195882018525e-04	9.967775e-01	7.802317e-02
2.602411303064801e-04	9.979305e-01	9.104940e-02
2.816713826711487e-04	9.802653e-01	1.029885e-01
3.164400213938622e-04	9.141238e-01	1.210372e-01
3.719835506747651e-04	7.203807e-01	1.441026e-01
4.563414361922538e-04	2.708875e-01	1.644496e-01
5.244159417079859e-04	-1.528089e-01	1.651452e-01
5.851102760375093e-04	-5.096377e-01	1.508787e-01
6.459359896333391e-04	-7.937458e-01	1.253654e-01
6.785861581431347e-04	-9.010090e-01	1.077348e-01
7.017663895301343e-04	-9.544275e-01	9.360608e-02
7.188958059305213e-04	-9.809636e-01	8.265255e-02
7.358777941168551e-04	-9.960659e-01	7.154183e-02
7.569934200899518e-04	-9.990348e-01	5.762214e-02
7.763861016366864e-04	-9.862885e-01	4.497306e-02
8.078891349557966e-04	-9.345770e-01	2.541889e-02
8.584652301750024e-04	-7.766241e-01	-2.137292e-03
9.199676992801248e-04	-4.819315e-01	-2.727344e-02
9.823901740137325e-04	-1.104202e-01	-4.055907e-02
1.044830463969562e-03	2.779680e-01	-3.951418e-02
1.108588173297746e-03	6.305640e-01	-2.443681e-02
1.166477664182900e-03	8.654310e-01	-1.187375e-03
1.193025175911285e-03	9.366053e-01	1.223481e-02
1.212381944026623e-03	9.721965e-01	2.306603e-02
1.227883717872077e-03	9.903605e-01	3.206117e-02
1.244696789700197e-03	9.994449e-01	4.198197e-02
1.263028278436124e-03	9.966514e-01	5.282106e-02
1.286205048090151e-03	9.742371e-01	6.622873e-02
1.323757659208741e-03	8.945231e-01	8.622255e-02
1.383459826151097e-03	6.685398e-01	1.108490e-01
1.472827466238121e-03	1.699018e-01	1.307171e-01
1.539187341154565e-03	-2.437410e-01	1.289233e-01
1.607907442103823e-03	-6.272385e-01	1.096347e-01
1.672814665147342e-03	-8.846890e-01	8.010088e-02
1.697580220353435e-03	-9.462485e-01	6.617980e-02
1.715768853959633e-03	-9.769592e-01	5.497600e-02
1.732095493570880e-03	-9.936789e-01	4.463550e-02
1.748554191632037e-03	-9.999588e-01	3.408801e-02
1.764462607326999e-03	-9.958740e-01	2.390562e-02
1.788537230395860e-03	-9.708279e-01	8.866722e-03
1.827514970793596e-03	-8.837216e-01	-1.353128e-02
1.887790823569865e-03	-6.480575e-01	-4.162057e-02
1.957128014617030e-03	-2.661268e-01	-6.164349e-02
2.023924561882907e-03	1.497570e-01	-6.533602e-02
2.091940282855072e-03	5.460801e-01	-5.269437e-02
2.154342573655126e-03	8.247517e-01	-2.938228e-02
2.184432170403652e-03	9.163318e-01	-1.445499e-02
2.206040942745116e-03	9.620979e-01	-2.317206e-03
2.222101909584407e-03	9.846762e-01	7.128463e-03
2.239755517049854e-03	9.979291e-01	1.774133e-02
2.261187871581675e-03	9.975303e-01	3.069800e-02
2.283211630683070e-03	9.783063e-01	4.378102e-02
2.318927996672997e-03	9.076744e-01	6.352095e-02
2.375895509691324e-03	7.031170e-01	8.872935e-02
2.462002930863710e-03	2.364811e-01	1.112760e-01
2.529475377506168e-03	-1.841424e-01	1.129106e-01
2.591753878110096e-03	-5.450985e-01	9.888346e-02
2.654810899089256e-03	-8.264121e-01	7.319703e-02
2.684760484641386e-03	-9.171559e-01	5.750117e-02
2.706281981968930e-03	-9.625098e-01	4.481937e-02
2.722283073957860e-03	-9.848741e-01	3.497737e-02
2.739975255613207e-03	-9.980170e-01	2.387217e-02
2.761269824167783e-03	-9.974940e-01	1.044296e-02
2.783344947493155e-03	-9.781324e-01	-3.235798e-03
2.819143254445881e-03	-9.071059e-01	-2.391025e-02
2.876233492408392e-03	-7.016053e-01	-5.095930e-02
2.953420886154463e-03	-2.885051e-01	-7.407619e-02
3.021942405227780e-03	1.374319e-01	-7.884387e-02
3.083261509184455e-03	4.996091e-01	-6.817102e-02
3.144838880779709e-03	7.895342e-01	-4.582190e-02
3.177829959823517e-03	8.989377e-01	-2.974933e-02
3.201215940940615e-03	9.533896e-01	-1.667176e-02
3.218483888338051e-03	9.804577e-01	-6.476367e-03
3.235381160195830e-03	9.957845e-01	3.765808e-03
3.256380220766160e-03	9.991966e-01	1.661589e-02
3.275387958058929e-03	9.873041e-01	2.813865e-02
3.306272117980457e-03	9.381433e-01	4.595986e-02
3.355896861527447e-03	7.866887e-01	7.041770e-02
3.432631855377494e-03	4.107592e-01	9.635044e-02
3.504687660921369e-03	-2.944918e-02	1.049859e-01
3.567089838338764e-03	-4.091642e-01	9.699532e-02
3.629961252886215e-03	-7.288020e-01	7.593836e-02
3.671511617206297e-03	-8.808427e-01	5.617490e-02
3.696639975778564e-03	-9.443212e-01	4.210185e-02
3.715068366302655e-03	-9.760104e-01	3.105431e-02
3.731224928616096e-03	-9.930499e-01	2.107778e-02
3.747007674173752e-03	-9.998233e-01	1.120564e-02
3.763887697174113e-03	-9.961954e-01	6.497211e-04
3.787602525521478e-03	-9.722193e-01	-1.383710e-02
3.826009695850638e-03	-8.881084e-01	-3.541159e-02
3.886973092428130e-03	-6.519619e-01	-6.237857e-02
3.970514173645901e-03	-1.842069e-01	-8.354232e-02
4.036468028754579e-03	2.271356e-01	-8.399947e-02
4.104698272218275e-03	6.114080e-01	-6.738041e-02
4.169871886318514e-03	8.759186e-01	-3.995658e-02
4.195459418817656e-03	9.418547e-01	-2.636513e-02
4.214189838886732e-03	9.747937e-01	-1.535748e-02
4.230132716259162e-03	9.922189e-01	-5.687959e-03
4.245198284763150e-03	9.995449e-01	3.578746e-03
4.263214833750060e-03	9.965549e-01	1.466970e-02
4.286508421412565e-03	9.738055e-01	2.869432e-02
4.324246695734723e-03	8.931453e-01	4.963848e-02
4.384223511974386e-03	6.649637e-01	7.562462e-02
4.473911085446101e-03	1.631884e-01	9.724904e-02
4.540287271920041e-03	-2.504378e-01	9.659909e-02
4.608842139219646e-03	-6.318017e-01	7.845404e-02
4.674543223426494e-03	-8.896999e-01	4.961383e-02
4.698830313926672e-03	-9.487598e-01	3.636450e-02
4.716701248585823e-03	-9.781927e-01	2.565662e-02
4.733236244551707e-03	-9.944580e-01	1.547125e-02
4.748600891923889e-03	-9.999614e-01	5.895565e-03
4.764479966132136e-03	-9.958642e-01	-3.989029e-03
4.788565451004773e-03	-9.707854e-01	-1.861574e-02
4.827560405290862e-03	-8.835880e-01	-4.031940e-02
4.889386925577682e-03	-6.403873e-01	-6.706372e-02
4.975589146133687e-03	-1.527773e-01	-8.764646e-02
5.041368867289364e-03	2.570112e-01	-8.693301e-02
5.109176968174329e-03	6.334310e-01	-6.914825e-02
5.175683269099462e-03	8.929473e-01	-4.019292e-02
5.199656525718144e-03	9.503874e-01	-2.722096e-02
5.217318144556274e-03	9.789904e-01	-1.671811e-02
5.233977697773518e-03	9.949369e-01	-6.535689e-03
5.251897077610002e-03	9.999290e-01	4.539120e-03
5.268089018401146e-03	9.935480e-01	1.450938e-02
5.294430229699713e-03	9.612863e-01	3.021826e-02
5.336985379770768e-03	8.543252e-01	5.299314e-02
5.403959266283540e-03	5.674797e-01	7.983600e-02
5.485565132087353e-03	9.057266e-02	9.599647e-02
5.550284914040054e-03	-3.107190e-01	9.263753e-02
5.616168028868336e-03	-6.667990e-01	7.376996e-02
5.670247344599105e-03	-8.770543e-01	4.957923e-02
5.695729476758152e-03	-9.424235e-01	3.567522e-02
5.714390707526410e-03	-9.750745e-01	2.459050e-02
5.730382480048994e-03	-9.924130e-01	1.479459e-02
5.745510924939344e-03	-9.996023e-01	5.400267e-03
5.763331120011504e-03	-9.964940e-01	-5.671575e-03
5.786697518550086e-03	-9.735346e-01	-1.986813e-02
5.824551477774106e-03	-8.922824e-01	-4.106741e-02
5.884699248953287e-03	-6.627281e-01	-6.752445e-02
5.971859730804884e-03	-1.758907e-01	-8.927986e-02
6.038072512193296e-03	2.369417e-01	-8.932848e-02
6.106610000781726e-03	6.208687e-01	-7.201571e-02
6.171909811212729e-03	8.820243e-01	-4.402374e-02
6.196927106905089e-03	9.449133e-01	-3.057823e-02
6.215282206766611e-03	9.763020e-01	-1.970025e-02
6.231490717442357e-03	9.932451e-01	-9.802796e-03
6.247479856534628e-03	9.998747e-01	8.833221e-05
6.264063243204359e-03	9.960986e-01	1.034357e-02
6.287887945403739e-03	9.717980e-01	2.472946e-02
6.326469430566476e-03	8.867770e-01	4.611689e-02
6.387689173893610e-03	6.485438e-01	7.238510e-02
6.477400385502911e-03	1.415209e-01	9.331684e-02
6.543670427302049e-03	-2.709592e-01	9.205585e-02
6.611645560543849e-03	-6.453564e-01	7.383269e-02
6.670061709548467e-03	-8.764934e-01	4.827311e-02
6.695595934571539e-03	-9.421425e-01	3.444573e-02
6.714291371720860e-03	-9.749358e-01	2.335925e-02
6.730258966879018e-03	-9.923173e-01	1.359257e-02
6.745291469928730e-03	-9.995624e-01	4.270499e-03
6.763249495080642e-03	-9.965368e-01	-6.873165e-03
6.786564785873674e-03	-9.737249e-01	-2.102328e-02
6.824337545929506e-03	-8.928884e-01	-4.216120e-02
6.884365338129922e-03	-6.642978e-01	-6.852601e-02
6.972204014009949e-03	-1.737608e-01	-9.036532e-02
7.038451222809152e-03	2.392527e-01	-9.031754e-02
7.107029642550286e-03	6.229335e-01	-7.286070e-02
7.172378018284111e-03	8.834068e-01	-4.473952e-02
7.197264943182445e-03	9.456059e-01	-3.133214e-02
7.215533893147076e-03	9.766430e-01	-2.048701e-02
7.231803514257651e-03	9.934712e-01	-1.053908e-02
7.248035526687103e-03	9.999238e-01	-4.867959e-04
7.264269810330932e-03	9.959832e-01	9.560666e-03
7.288223788654907e-03	9.712982e-01	2.403045e-02
7.327010286613720e-03	8.852012e-01	4.551860e-02
7.388531115813300e-03	6.445080e-01	7.186639e-02
7.477806597806416e-03	1.389938e-01	9.259009e-02
7.543995421144579e-03	-2.729242e-01	9.125865e-02
7.611847119561887e-03	-6.463233e-01	7.304343e-02
7.670059456430775e-03	-8.764866e-01	4.757510e-02
7.695594313956654e-03	-9.421391e-01	3.375509e-02
7.714290166309299e-03	-9.749342e-01	2.267650e-02
7.730257468048301e-03	-9.923162e-01	1.291687e-02
7.745288806825069e-03	-9.995619e-01	3.601893e-03
7.763248504521736e-03	-9.965373e-01	-7.535285e-03
7.786563175083539e-03	-9.737272e-01	-2.167543e-02
7.824334949641682e-03	-8.928958e-01	-4.279769e-02
7.884361285270964e-03	-6.643168e-01	-6.911951e-02
7.972570510133857e-03	-1.714927e-01	-9.095928e-02
8.038811793341609e-03	2.414518e-01	-9.082151e-02
8.107384347605629e-03	6.246754e-01	-7.325838e-02
8.172808471474498e-03	8.846709e-01	-4.502166e-02
8.197575746829567e-03	9.462394e-01	-3.165597e-02
8.215765519514829e-03	9.769547e-01	-2.084544e-02
8.232091350156267e-03	9.936759e-01	-1.085478e-02
8.248546831536472e-03	9.999583e-01	-6.577172e-04
8.264459871524079e-03	9.958756e-01	9.194619e-03
8.288532782728255e-03	9.708346e-01	2.373623e-02
8.327507810087625e-03	8.837427e-01	4.530828e-02
8.389305128292173e-03	6.407820e-01	7.170499e-02
8.478372792552912e-03	1.354699e-01	9.223109e-02
8.544510534015523e-03	-2.760365e-01	9.078417e-02
8.612242226586402e-03	-6.482156e-01	7.252619e-02
8.670119164068502e-03	-8.766671e-01	4.717406e-02
8.695637262157212e-03	-9.422296e-01	3.336084e-02
8.714322111849103e-03	-9.749788e-01	2.229210e-02
8.730297189441346e-03	-9.923470e-01	1.253089e-02
8.745359383138295e-03	-9.995750e-01	3.200009e-03
8.763274755566666e-03	-9.965236e-01	-7.905539e-03
8.786605862919728e-03	-9.736661e-01	-2.204960e-02
8.824403753539097e-03	-8.927011e-01	-4.317414e-02
8.884468685527069e-03	-6.638123e-01	-6.947660e-02
8.972883261359093e-03	-1.695564e-01	-9.128869e-02
9.039106155473405e-03	2.432462e-01	-9.107818e-02
9.107658199186443e-03	6.260181e-01	-7.343926e-02
9.173154468458167e-03	8.856823e-01	-4.511087e-02
9.197825714288765e-03	9.467463e-01	-3.178115e-02
9.215951862497362e-03	9.772040e-01	-2.100006e-02
9.232322892673202e-03	9.938383e-01	-1.097640e-02
9.248958121320506e-03	9.999786e-01	-6.641737e-04
9.264612748325976e-03	9.957880e-01	9.029768e-03
9.288781314487626e-03	9.704590e-01	2.362713e-02
9.327907915277952e-03	8.825634e-01	4.526329e-02
9.389927252538869e-03	6.377761e-01	7.168994e-02
9.478898612020089e-03	1.321958e-01	9.205484e-02
9.545003815890249e-03	-2.790141e-01	9.049658e-02
9.612636826571107e-03	-6.501015e-01	7.218613e-02
9.670189394828324e-03	-8.768793e-01	4.693994e-02
9.695687784759530e-03	-9.423358e-01	3.313215e-02
9.714359693250092e-03	-9.750313e-01	2.207224e-02
9.730343917790799e-03	-9.923832e-01	1.230686e-02
9.745442408865480e-03	-9.995900e-01	2.955096e-03
9.763305636470557e-03	-9.965074e-01	-8.115813e-03
9.786656079257893e-03	-9.735941e-01	-2.226776e-02
9.824484689713456e-03	-8.924718e-01	-4.340014e-02
9.884595013022827e-03	-6.632184e-01	-6.969436e-02
9.973125180724513e-03	-1.680582e-01	-9.147283e-02
1.003934406819690e-02	2.446959e-01	-9.120585e-02
1.010787276059449e-02	6.270688e-01	-7.351192e-02
1.017343476190271e-02	8.864986e-01	-4.510956e-02
1.019802830789833e-02	9.471554e-01	-3.181032e-02
1.021610292542170e-02	9.774050e-01	-2.105395e-02
1.023251058393771e-02	9.939682e-01	-1.100429e-02
1.024929150660233e-02	9.999901e-01	-5.994183e-04
1.026473666466271e-02	9.957163e-01	8.965389e-03
1.028898275902629e-02	9.701529e-01	2.360684e-02
1.032823217275354e-02	8.816037e-01	4.529309e-02
1.039043122311102e-02	6.353340e-01	7.173883e-02
1.047936229244570e-02	1.293075e-01	9.197175e-02
1.054544562166021e-02	-2.816788e-01	9.031188e-02
1.061302605992545e-02	-6.519579e-01	7.193939e-02
1.067027320879505e-02	-8.771324e-01	4.679000e-02
1.069574808596419e-02	-9.424626e-01	3.298807e-02
1.071440455118728e-02	-9.750938e-01	2.193719e-02
1.073039969268560e-02	-9.924263e-01	1.216555e-02
1.074554150764744e-02	-9.996076e-01	2.787686e-03
1.076334249462855e-02	-9.964880e-01	-8.243284e-03
1.078671601497162e-02	-9.735081e-01	-2.240641e-02
1.082458128811444e-02	-8.921978e-01	-4.355099e-02
1.088474577129818e-02	-6.625092e-01	-6.984328e-02
1.097334502744423e-02	-1.666963e-01	-9.158120e-02
1.103956815986041e-02	2.460609e-01	-9.126280e-02
1.110806949319634e-02	6.280312e-01	-7.352200e-02
1.117369924561355e-02	8.872664e-01	-4.505010e-02
1.119821955133155e-02	9.475402e-01	-3.178065e-02
1.121624555434636e-02	9.775941e-01	-2.104829e-02
1.123268778504976e-02	9.940897e-01	-1.097468e-02
1.124960624924015e-02	9.999970e-01	-4.829258e-04
1.126485364988667e-02	9.956481e-01	8.959402e-03
1.128917293086179e-02	9.698624e-01	2.364158e-02
1.132853824935037e-02	8.806943e-01	4.537362e-02
1.139090675668786e-02	6.330238e-01	7.183325e-02
1.147982953908746e-02	1.263957e-01	9.194040e-02
1.154589572806395e-02	-2.843912e-01	9.017613e-02
1.161343966158480e-02	-6.539262e-01	7.173268e-02
1.167036894616372e-02	-8.774211e-01	4.668229e-02
1.169581697510357e-02	-9.426072e-01	3.288661e-02
1.171445580125140e-02	-9.751652e-01	2.184531e-02
1.173046341397307e-02	-9.924755e-01	1.206590e-02
1.174565472446207e-02	-9.996273e-01	2.657635e-03
1.176338460242840e-02	-9.964659e-01	-8.328392e-03
1.178678448667274e-02	-9.734096e-01	-2.250518e-02
1.182469163999926e-02	-8.918844e-01	-4.366505e-02
1.188491797386918e-02	-6.616984e-01	-6.995898e-02
1.197356245121147e-02	-1.653491e-01	-9.165110e-02
1.203978613775697e-02	2.473881e-01	-9.128278e-02
1.210825731830968e-02	6.289492e-01	-7.349892e-02
1.217395527475741e-02	8.880073e-01	-4.495998e-02
1.219840475240887e-02	9.479114e-01	-3.171995e-02
1.221638370384018e-02	9.777764e-01	-2.101125e-02
1.223285492564387e-02	9.942032e-01	-1.091944e-02
1.224791580105119e-02	9.999142e-01	-1.579850e-03
1.226422530444395e-02	9.960082e-01	8.525915e-03
1.228815143086867e-02	9.714063e-01	2.299557e-02
1.232689376752255e-02	8.855416e-01	4.449046e-02
1.238834977770006e-02	6.453788e-01	7.090008e-02
1.247706462274367e-02	1.436090e-01	9.169059e-02
1.254319013680640e-02	-2.680531e-01	9.054685e-02
1.261109091183507e-02	-6.426904e-01	7.250115e-02
1.266984688182916e-02	-8.758428e-01	4.690692e-02
1.269544143923012e-02	-9.418167e-01	3.308505e-02
1.271417646779036e-02	-9.747750e-01	2.199571e-02
1.273011608959068e-02	-9.922059e-01	1.226200e-02
1.274519457394732e-02	-9.995442e-01	2.925366e-03
1.276321345344670e-02	-9.965556e-01	-8.240294e-03
1.278650617682656e-02	-9.738086e-01	-2.235777e-02
1.282424307777402e-02	-8.931556e-01	-4.344936e-02
1.288421786367572e-02	-6.649901e-01	-6.971954e-02
1.297282154972889e-02	-1.699385e-01	-9.159383e-02
1.303907554595269e-02	2.430597e-01	-9.138925e-02
1.310766336494450e-02	6.260434e-01	-7.373463e-02
1.317312926502551e-02	8.856088e-01	-4.541014e-02
1.319780750159204e-02	9.467095e-01	-3.207261e-02
1.321593828385281e-02	9.771858e-01	-2.128595e-02
1.323230602100766e-02	9.938264e-01	-1.126165e-02
1.324892815264053e-02	9.999774e-01	-9.547510e-04
1.326460160910778e-02	9.957944e-01	8.753591e-03
1.328876320574948e-02	9.704865e-01	2.335123e-02
1.332787876444680e-02	8.826495e-01	4.498959e-02
1.338988193588096e-02	6.379954e-01	7.143313e-02
1.347870428829080e-02	1.334060e-01	9.181567e-02
1.354479274925532e-02	-2.777404e-01	9.030667e-02
1.361243831555486e-02	-6.491533e-01	7.204060e-02
1.367013383152296e-02	-8.767115e-01	4.676058e-02
1.369564781318092e-02	-9.422517e-01	3.295235e-02
1.371432996009225e-02	-9.749897e-01	2.188967e-02
1.373030694793574e-02	-9.923546e-01	1.213116e-02
1.374537672181819e-02	-9.995781e-01	2.799253e-03
1.376328120464610e-02	-9.965202e-01	-8.295146e-03
1.378661634998176e-02	-9.736511e-01	-2.243583e-02
1.382442065624712e-02	-8.926532e-01	-4.355403e-02
1.388449506872035e-02	-6.636883e-01	-6.983246e-02
1.397312602082641e-02	-1.680529e-01	-9.163520e-02
1.403936063427553e-02	2.447968e-01	-9.136390e-02
1.410790272253186e-02	6.272154e-01	-7.365585e-02
1.417345953602055e-02	8.865707e-01	-4.524566e-02
1.419804621845043e-02	9.471915e-01	-3.194681e-02
1.421611628186916e-02	9.774228e-01	-2.119111e-02
1.423252717834753e-02	9.939797e-01	-1.113779e-02
1.424932098180636e-02	9.999909e-01	-7.233508e-04
1.426474762022583e-02	9.957100e-01	8.831289e-03
1.428900056866369e-02	9.701257e-01	2.347857e-02
1.432826083837119e-02	8.815186e-01	4.517231e-02
1.439047576664837e-02	6.351178e-01	7.162823e-02
1.447933393336109e-02	1.294841e-01	9.185223e-02
1.454540685325697e-02	-2.814450e-01	9.020212e-02
1.461297707925165e-02	-6.517245e-01	7.184494e-02
1.467025397211630e-02	-8.770743e-01	4.669128e-02
1.469573424516530e-02	-9.424335e-01	3.288943e-02
1.471439425478775e-02	-9.750794e-01	2.183802e-02
1.473038689057751e-02	-9.924164e-01	1.206912e-02
1.474551876139197e-02	-9.996036e-01	2.698470e-03
1.476333403463077e-02	-9.964925e-01	-8.340244e-03
1.478670225805672e-02	-9.735278e-01	-2.249897e-02
1.482455911637866e-02	-8.922607e-01	-4.363783e-02
1.488471116999450e-02	-6.626720e-01	-6.992242e-02
1.497336462852324e-02	-1.665749e-01	-9.166836e-02
1.503959564508691e-02	2.462283e-01	-9.134339e-02
1.510810097904692e-02	6.281852e-01	-7.359175e-02
1.517373414281783e-02	8.873675e-01	-4.511004e-02
1.519824479044426e-02	9.475908e-01	-3.184338e-02
1.521626437973371e-02	9.776189e-01	-2.111345e-02
1.523271117276341e-02	9.941057e-01	-1.103765e-02
