Freq.	V(n003)
1.00000000000000e+00	(-4.32246345397173e-04dB,-5.77349038954762e-01°)
1.00230523807790e+00	(-4.34241404155113e-04dB,-5.78679878226898e-01°)
1.00461579027839e+00	(-4.36245670762743e-04dB,-5.80013784792425e-01°)
1.00693166885180e+00	(-4.38259187711062e-04dB,-5.81350765717972e-01°)
1.00925288607668e+00	(-4.40281997691728e-04dB,-5.82690828086426e-01°)
1.01157945425990e+00	(-4.42314143592239e-04dB,-5.84033978996976e-01°)
1.01391138573668e+00	(-4.44355668498823e-04dB,-5.85380225565144e-01°)
1.01624869287070e+00	(-4.46406615684869e-04dB,-5.86729574922827e-01°)
1.01859138805412e+00	(-4.48467028638893e-04dB,-5.88082034218330e-01°)
1.02093948370768e+00	(-4.50536951040430e-04dB,-5.89437610616409e-01°)
1.02329299228075e+00	(-4.52616426784144e-04dB,-5.90796311298306e-01°)
1.02565192625141e+00	(-4.54705499942219e-04dB,-5.92158143461785e-01°)
1.02801629812647e+00	(-4.56804214812575e-04dB,-5.93523114321173e-01°)
1.03038612044162e+00	(-4.58912615892835e-04dB,-5.94891231107396e-01°)
1.03276140576140e+00	(-4.61030747879361e-04dB,-5.96262501068018e-01°)
1.03514216667934e+00	(-4.63158655679787e-04dB,-5.97636931467279e-01°)
1.03752841581801e+00	(-4.65296384399523e-04dB,-5.99014529586134e-01°)
1.03992016582906e+00	(-4.67443979375508e-04dB,-6.00395302722288e-01°)
1.04231742939330e+00	(-4.69601486127027e-04dB,-6.01779258190238e-01°)
1.04472021922080e+00	(-4.71768950397181e-04dB,-6.03166403321312e-01°)
1.04712854805090e+00	(-4.73946418141312e-04dB,-6.04556745463702e-01°)
1.04954242865232e+00	(-4.76133935518328e-04dB,-6.05950291982511e-01°)
1.05196187382322e+00	(-4.78331548909028e-04dB,-6.07347050259784e-01°)
1.05438689639126e+00	(-4.80539304903559e-04dB,-6.08747027694551e-01°)
1.05681750921366e+00	(-4.82757250307213e-04dB,-6.10150231702865e-01°)
1.05925372517729e+00	(-4.84985432141383e-04dB,-6.11556669717841e-01°)
1.06169555719872e+00	(-4.87223897641641e-04dB,-6.12966349189696e-01°)
1.06414301822431e+00	(-4.89472694273166e-04dB,-6.14379277585786e-01°)
1.06659612123026e+00	(-4.91731869700851e-04dB,-6.15795462390647e-01°)
1.06905487922266e+00	(-4.94001471825949e-04dB,-6.17214911106033e-01°)
1.07151930523761e+00	(-4.96281548769678e-04dB,-6.18637631250959e-01°)
1.07398941234124e+00	(-4.98572148857797e-04dB,-6.20063630361736e-01°)
1.07646521362983e+00	(-5.00873320663032e-04dB,-6.21492915992013e-01°)
1.07894672222983e+00	(-5.03185112966510e-04dB,-6.22925495712814e-01°)
1.08143395129794e+00	(-5.05507574781861e-04dB,-6.24361377112585e-01°)
1.08392691402120e+00	(-5.07840755338833e-04dB,-6.25800567797226e-01°)
1.08642562361706e+00	(-5.10184704108358e-04dB,-6.27243075390132e-01°)
1.08893009333343e+00	(-5.12539470783274e-04dB,-6.28688907532239e-01°)
1.09144033644876e+00	(-5.14905105276389e-04dB,-6.30138071882059e-01°)
1.09395636627209e+00	(-5.17281657750384e-04dB,-6.31590576115720e-01°)
1.09647819614318e+00	(-5.19669178578272e-04dB,-6.33046427927009e-01°)
1.09900583943252e+00	(-5.22067718383901e-04dB,-6.34505635027411e-01°)
1.10153930954141e+00	(-5.24477328013029e-04dB,-6.35968205146151e-01°)
1.10407861990207e+00	(-5.26898058547784e-04dB,-6.37434146030233e-01°)
1.10662378397766e+00	(-5.29329961304739e-04dB,-6.38903465444479e-01°)
1.10917481526240e+00	(-5.31773087847454e-04dB,-6.40376171171575e-01°)
1.11173172728159e+00	(-5.34227489967183e-04dB,-6.41852271012106e-01°)
1.11429453359173e+00	(-5.36693219692521e-04dB,-6.43331772784604e-01°)
1.11686324778056e+00	(-5.39170329303874e-04dB,-6.44814684325581e-01°)
1.11943788346715e+00	(-5.41658871310308e-04dB,-6.46301013489577e-01°)
1.12201845430196e+00	(-5.44158898464989e-04dB,-6.47790768149196e-01°)
1.12460497396692e+00	(-5.46670463777713e-04dB,-6.49283956195151e-01°)
1.12719745617551e+00	(-5.49193620483087e-04dB,-6.50780585536305e-01°)
1.12979591467280e+00	(-5.51728422077176e-04dB,-6.52280664099711e-01°)
1.13240036323556e+00	(-5.54274922292427e-04dB,-6.53784199830656e-01°)
1.13501081567231e+00	(-5.56833175115035e-04dB,-6.55291200692698e-01°)
1.13762728582343e+00	(-5.59403234780116e-04dB,-6.56801674667714e-01°)
1.14024978756117e+00	(-5.61985155771712e-04dB,-6.58315629755937e-01°)
1.14287833478977e+00	(-5.64578992822790e-04dB,-6.59833073976004e-01°)
1.14551294144553e+00	(-5.67184800922960e-04dB,-6.61354015364988e-01°)
1.14815362149688e+00	(-5.69802635312689e-04dB,-6.62878461978451e-01°)
1.15080038894443e+00	(-5.72432551485230e-04dB,-6.64406421890481e-01°)
1.15345325782109e+00	(-5.75074605200125e-04dB,-6.65937903193733e-01°)
1.15611224219210e+00	(-5.77728852461992e-04dB,-6.67472913999477e-01°)
1.15877735615512e+00	(-5.80395349534989e-04dB,-6.69011462437634e-01°)
1.16144861384034e+00	(-5.83074152958246e-04dB,-6.70553556656823e-01°)
1.16412602941049e+00	(-5.85765319509221e-04dB,-6.72099204824404e-01°)
1.16680961706096e+00	(-5.88468906240346e-04dB,-6.73648415126517e-01°)
1.16949939101987e+00	(-5.91184970468420e-04dB,-6.75201195768131e-01°)
1.17219536554813e+00	(-5.93913569767863e-04dB,-6.76757554973081e-01°)
1.17489755493953e+00	(-5.96654761985179e-04dB,-6.78317500984114e-01°)
1.17760597352080e+00	(-5.99408605228349e-04dB,-6.79881042062933e-01°)
1.18032063565173e+00	(-6.02175157873586e-04dB,-6.81448186490240e-01°)
1.18304155572516e+00	(-6.04954478578837e-04dB,-6.83018942565777e-01°)
1.18576874816716e+00	(-6.07746626249064e-04dB,-6.84593318608373e-01°)
1.18850222743702e+00	(-6.10551660079644e-04dB,-6.86171322955986e-01°)
1.19124200802737e+00	(-6.13369639536120e-04dB,-6.87752963965748e-01°)
1.19398810446427e+00	(-6.16200624356127e-04dB,-6.89338250014005e-01°)
1.19674053130724e+00	(-6.19044674545541e-04dB,-6.90927189496366e-01°)
1.19949930314938e+00	(-6.21901850404515e-04dB,-6.92519790827745e-01°)
1.20226443461741e+00	(-6.24772212491799e-04dB,-6.94116062442404e-01°)
1.20503594037179e+00	(-6.27655821663317e-04dB,-6.95716012793999e-01°)
1.20781383510678e+00	(-6.30552739035522e-04dB,-6.97319650355622e-01°)
1.21059813355048e+00	(-6.33463026030724e-04dB,-6.98926983619850e-01°)
1.21338885046497e+00	(-6.36386744336586e-04dB,-7.00538021098785e-01°)
1.21618600064636e+00	(-6.39323955926376e-04dB,-7.02152771324100e-01°)
1.21898959892486e+00	(-6.42274723072477e-04dB,-7.03771242847085e-01°)
1.22179966016487e+00	(-6.45239108322269e-04dB,-7.05393444238689e-01°)
1.22461619926504e+00	(-6.48217174516460e-04dB,-7.07019384089571e-01°)
1.22743923115840e+00	(-6.51208984784265e-04dB,-7.08649071010136e-01°)
1.23026877081238e+00	(-6.54214602544371e-04dB,-7.10282513630589e-01°)
1.23310483322890e+00	(-6.57234091514582e-04dB,-7.11919720600975e-01°)
1.23594743344451e+00	(-6.60267515695426e-04dB,-7.13560700591226e-01°)
1.23879658653036e+00	(-6.63314939393303e-04dB,-7.15205462291205e-01°)
1.24165230759241e+00	(-6.66376427207948e-04dB,-7.16854014410755e-01°)
1.24451461177138e+00	(-6.69452044041115e-04dB,-7.18506365679741e-01°)
1.24738351424294e+00	(-6.72541855076321e-04dB,-7.20162524848099e-01°)
1.25025903021771e+00	(-6.75645925821286e-04dB,-7.21822500685877e-01°)
1.25314117494141e+00	(-6.78764322071287e-04dB,-7.23486301983287e-01°)
1.25602996369487e+00	(-6.81897109931338e-04dB,-7.25153937550747e-01°)
1.25892541179416e+00	(-6.85044355802690e-04dB,-7.26825416218929e-01°)
1.26182753459066e+00	(-6.88206126412734e-04dB,-7.28500746838806e-01°)
1.26473634747115e+00	(-6.91382488771599e-04dB,-7.30179938281694e-01°)
1.26765186585784e+00	(-6.94573510218449e-04dB,-7.31862999439304e-01°)
1.27057410520854e+00	(-6.97779258382904e-04dB,-7.33549939223786e-01°)
1.27350308101666e+00	(-7.00999801232303e-04dB,-7.35240766567775e-01°)
1.27643880881134e+00	(-7.04235207026376e-04dB,-7.36935490424440e-01°)
1.27938130415752e+00	(-7.07485544348105e-04dB,-7.38634119767528e-01°)
1.28233058265602e+00	(-7.10750882096979e-04dB,-7.40336663591415e-01°)
1.28528665994361e+00	(-7.14031289485133e-04dB,-7.42043130911150e-01°)
1.28824955169313e+00	(-7.17326836054714e-04dB,-7.43753530762503e-01°)
1.29121927361353e+00	(-7.20637591657628e-04dB,-7.45467872202012e-01°)
1.29419584144998e+00	(-7.23963626474830e-04dB,-7.47186164307030e-01°)
1.29717927098395e+00	(-7.27305011006681e-04dB,-7.48908416175777e-01°)
1.30016957803328e+00	(-7.30661816075847e-04dB,-7.50634636927381e-01°)
1.30316677845229e+00	(-7.34034112849477e-04dB,-7.52364835701930e-01°)
1.30617088813183e+00	(-7.37421972791950e-04dB,-7.54099021660517e-01°)
1.30918192299940e+00	(-7.40825467731425e-04dB,-7.55837203985294e-01°)
1.31219989901920e+00	(-7.44244669803904e-04dB,-7.57579391879512e-01°)
1.31522483219223e+00	(-7.47679651482165e-04dB,-7.59325594567575e-01°)
1.31825673855640e+00	(-7.51130485584448e-04dB,-7.61075821295086e-01°)
1.32129563418657e+00	(-7.54597245250343e-04dB,-7.62830081328895e-01°)
1.32434153519466e+00	(-7.58080003966831e-04dB,-7.64588383957148e-01°)
1.32739445772973e+00	(-7.61578835556717e-04dB,-7.66350738489339e-01°)
1.33045441797808e+00	(-7.65093814179592e-04dB,-7.68117154256354e-01°)
1.33352143216332e+00	(-7.68625014346302e-04dB,-7.69887640610518e-01°)
1.33659551654643e+00	(-7.72172510896773e-04dB,-7.71662206925655e-01°)
1.33967668742593e+00	(-7.75736379035691e-04dB,-7.73440862597122e-01°)
1.34276496113786e+00	(-7.79316694291036e-04dB,-7.75223617041871e-01°)
1.34586035405594e+00	(-7.82913532564234e-04dB,-7.77010479698491e-01°)
1.34896288259164e+00	(-7.86526970090620e-04dB,-7.78801460027260e-01°)
1.35207256319427e+00	(-7.90157083455831e-04dB,-7.80596567510193e-01°)
1.35518941235103e+00	(-7.93803949611244e-04dB,-7.82395811651095e-01°)
1.35831344658715e+00	(-7.97467645852756e-04dB,-7.84199201975606e-01°)
1.36144468246594e+00	(-8.01148249835256e-04dB,-7.86006748031254e-01°)
1.36458313658892e+00	(-8.04845839572626e-04dB,-7.87818459387504e-01°)
1.36772882559584e+00	(-8.08560493444494e-04dB,-7.89634345635809e-01°)
1.37088176616484e+00	(-8.12292290177912e-04dB,-7.91454416389659e-01°)
1.37404197501251e+00	(-8.16041308873400e-04dB,-7.93278681284631e-01°)
1.37720946889394e+00	(-8.19807628992408e-04dB,-7.95107149978441e-01°)
1.38038426460288e+00	(-8.23591330372751e-04dB,-7.96939832150995e-01°)
1.38356637897177e+00	(-8.27392493204499e-04dB,-7.98776737504434e-01°)
1.38675582887188e+00	(-8.31211198055056e-04dB,-8.00617875763195e-01°)
1.38995263121334e+00	(-8.35047525869163e-04dB,-8.02463256674049e-01°)
1.39315680294529e+00	(-8.38901557951538e-04dB,-8.04312890006166e-01°)
1.39636836105593e+00	(-8.42773375999672e-04dB,-8.06166785551154e-01°)
1.39958732257261e+00	(-8.46663062070075e-04dB,-8.08024953123117e-01°)
1.40281370456195e+00	(-8.50570698609140e-04dB,-8.09887402558703e-01°)
1.40604752412990e+00	(-8.54496368438679e-04dB,-8.11754143717159e-01°)
1.40928879842186e+00	(-8.58440154764608e-04dB,-8.13625186480379e-01°)
1.41253754462274e+00	(-8.62402141175016e-04dB,-8.15500540752959e-01°)
1.41579377995707e+00	(-8.66382411647889e-04dB,-8.17380216462243e-01°)
1.41905752168908e+00	(-8.70381050539532e-04dB,-8.19264223558384e-01°)
1.42232878712281e+00	(-8.74398142605797e-04dB,-8.21152572014386e-01°)
1.42560759360218e+00	(-8.78433772984721e-04dB,-8.23045271826163e-01°)
1.42889395851109e+00	(-8.82488027213890e-04dB,-8.24942333012590e-01°)
1.43218789927353e+00	(-8.86560991215009e-04dB,-8.26843765615554e-01°)
1.43548943335364e+00	(-8.90652751320912e-04dB,-8.28749579700004e-01°)
1.43879857825583e+00	(-8.94763394251452e-04dB,-8.30659785354012e-01°)
1.44211535152486e+00	(-8.98893007130865e-04dB,-8.32574392688815e-01°)
1.44543977074592e+00	(-9.03041677487769e-04dB,-8.34493411838876e-01°)
1.44877185354475e+00	(-9.07209493243600e-04dB,-8.36416852961934e-01°)
1.45211161758773e+00	(-9.11396542736719e-04dB,-8.38344726239057e-01°)
1.45545908058195e+00	(-9.15602914706989e-04dB,-8.40277041874693e-01°)
1.45881426027534e+00	(-9.19828698310242e-04dB,-8.42213810096729e-01°)
1.46217717445671e+00	(-9.24073983098031e-04dB,-8.44155041156538e-01°)
1.46554784095590e+00	(-9.28338859059099e-04dB,-8.46100745329037e-01°)
1.46892627764385e+00	(-9.32623416575989e-04dB,-8.48050932912739e-01°)
1.47231250243271e+00	(-9.36927746453009e-04dB,-8.50005614229807e-01°)
1.47570653327588e+00	(-9.41251939922993e-04dB,-8.51964799626108e-01°)
1.47910838816819e+00	(-9.45596088629937e-04dB,-8.53928499471266e-01°)
1.48251808514594e+00	(-9.49960284638654e-04dB,-8.55896724158718e-01°)
1.48593564228699e+00	(-9.54344620446343e-04dB,-8.57869484105766e-01°)
1.48936107771090e+00	(-9.58749188971024e-04dB,-8.59846789753633e-01°)
1.49279440957898e+00	(-9.63174083566009e-04dB,-8.61828651567518e-01°)
1.49623565609442e+00	(-9.67619398001573e-04dB,-8.63815080036648e-01°)
1.49968483550236e+00	(-9.72085226502579e-04dB,-8.65806085674337e-01°)
1.50314196609001e+00	(-9.76571663705079e-04dB,-8.67801679018035e-01°)
1.50660706618673e+00	(-9.81078804697785e-04dB,-8.69801870629389e-01°)
1.51008015416413e+00	(-9.85606744997001e-04dB,-8.71806671094293e-01°)
1.51356124843619e+00	(-9.90155580565914e-04dB,-8.73816091022949e-01°)
1.51705036745932e+00	(-9.94725407808808e-04dB,-8.75830141049915e-01°)
1.52054752973248e+00	(-9.99316323573966e-04dB,-8.77848831834168e-01°)
1.52405275379728e+00	(-1.00392842516428e-03dB,-8.79872174059152e-01°)
1.52756605823806e+00	(-1.00856181031217e-03dB,-8.81900178432842e-01°)
1.53108746168202e+00	(-1.01321657721723e-03dB,-8.83932855687792e-01°)
1.53461698279928e+00	(-1.01789282452883e-03dB,-8.85970216581196e-01°)
1.53815464030302e+00	(-1.02259065135000e-03dB,-8.88012271894944e-01°)
1.54170045294954e+00	(-1.02731015723456e-03dB,-8.90059032435674e-01°)
1.54525443953840e+00	(-1.03205144221022e-03dB,-8.92110509034833e-01°)
1.54881661891247e+00	(-1.03681460674874e-03dB,-8.94166712548731e-01°)
1.55238700995807e+00	(-1.04159975179965e-03dB,-8.96227653858599e-01°)
1.55596563160506e+00	(-1.04640697876423e-03dB,-8.98293343870643e-01°)
1.55955250282694e+00	(-1.05123638952735e-03dB,-9.00363793516104e-01°)
1.56314764264094e+00	(-1.05608808642948e-03dB,-9.02439013751316e-01°)
1.56675107010813e+00	(-1.06096217228696e-03dB,-9.04519015557756e-01°)
1.57036280433354e+00	(-1.06585875040167e-03dB,-9.06603809942109e-01°)
1.57398286446620e+00	(-1.07077792453303e-03dB,-9.08693407936322e-01°)
1.57761126969933e+00	(-1.07571979893176e-03dB,-9.10787820597662e-01°)
1.58124803927037e+00	(-1.08068447832450e-03dB,-9.12887059008772e-01°)
1.58489319246110e+00	(-1.08567206792050e-03dB,-9.14991134277733e-01°)
1.58854674859776e+00	(-1.09068267342422e-03dB,-9.17100057538115e-01°)
1.59220872705115e+00	(-1.09571640100732e-03dB,-9.19213839949043e-01°)
1.59587914723672e+00	(-1.10077335734825e-03dB,-9.21332492695249e-01°)
1.59955802861465e+00	(-1.10585364961098e-03dB,-9.23456026987131e-01°)
1.60324539069002e+00	(-1.11095738545279e-03dB,-9.25584454060817e-01°)
1.60694125301286e+00	(-1.11608467303674e-03dB,-9.27717785178213e-01°)
1.61064563517825e+00	(-1.12123562100472e-03dB,-9.29856031627074e-01°)
1.61435855682647e+00	(-1.12641033851988e-03dB,-9.31999204721052e-01°)
1.61808003764305e+00	(-1.13160893523962e-03dB,-9.34147315799763e-01°)
1.62181009735891e+00	(-1.13683152132717e-03dB,-9.36300376228839e-01°)
1.62554875575047e+00	(-1.14207820744967e-03dB,-9.38458397399993e-01°)
1.62929603263970e+00	(-1.14734910479843e-03dB,-9.40621390731075e-01°)
1.63305194789432e+00	(-1.15264432506288e-03dB,-9.42789367666132e-01°)
1.63681652142779e+00	(-1.15796398045277e-03dB,-9.44962339675467e-01°)
1.64058977319952e+00	(-1.16330818370205e-03dB,-9.47140318255704e-01°)
1.64437172321491e+00	(-1.16867704804569e-03dB,-9.49323314929837e-01°)
1.64816239152549e+00	(-1.17407068725828e-03dB,-9.51511341247300e-01°)
1.65196179822900e+00	(-1.17948921563764e-03dB,-9.53704408784022e-01°)
1.65576996346951e+00	(-1.18493274800194e-03dB,-9.55902529142490e-01°)
1.65958690743754e+00	(-1.19040139969935e-03dB,-9.58105713951805e-01°)
1.66341265037015e+00	(-1.19589528661476e-03dB,-9.60313974867747e-01°)
1.66724721255104e+00	(-1.20141452516502e-03dB,-9.62527323572834e-01°)
1.67109061431069e+00	(-1.20695923229985e-03dB,-9.64745771776383e-01°)
1.67494287602642e+00	(-1.21252952551348e-03dB,-9.66969331214568e-01°)
1.67880401812254e+00	(-1.21812552284171e-03dB,-9.69198013650486e-01°)
1.68267406107045e+00	(-1.22374734285518e-03dB,-9.71431830874214e-01°)
1.68655302538872e+00	(-1.22939510469026e-03dB,-9.73670794702873e-01°)
1.69044093164324e+00	(-1.23506892801817e-03dB,-9.75914916980687e-01°)
1.69433780044731e+00	(-1.24076893305655e-03dB,-9.78164209579046e-01°)
1.69824365246172e+00	(-1.24649524059072e-03dB,-9.80418684396569e-01°)
1.70215850839493e+00	(-1.25224797195821e-03dB,-9.82678353359161e-01°)
1.70608238900310e+00	(-1.25802724905748e-03dB,-9.84943228420081e-01°)
1.71001531509027e+00	(-1.26383319434791e-03dB,-9.87213321560001e-01°)
1.71395730750840e+00	(-1.26966593085077e-03dB,-9.89488644787066e-01°)
1.71790838715757e+00	(-1.27552558215019e-03dB,-9.91769210136961e-01°)
1.72186857498599e+00	(-1.28141227241440e-03dB,-9.94055029672972e-01°)
1.72583789199018e+00	(-1.28732612637643e-03dB,-9.96346115486045e-01°)
1.72981635921508e+00	(-1.29326726933604e-03dB,-9.98642479694854e-01°)
1.73380399775412e+00	(-1.29923582718770e-03dB,-1.00094413444586e+00°)
1.73780082874935e+00	(-1.30523192639168e-03dB,-1.00325109191338e+00°)
1.74180687339159e+00	(-1.31125569399621e-03dB,-1.00556336429963e+00°)
1.74582215292048e+00	(-1.31730725763559e-03dB,-1.00788096383483e+00°)
1.74984668862464e+00	(-1.32338674553885e-03dB,-1.01020390277722e+00°)
1.75388050184174e+00	(-1.32949428651431e-03dB,-1.01253219341316e+00°)
1.75792361395867e+00	(-1.33563000996990e-03dB,-1.01486584805717e+00°)
1.76197604641161e+00	(-1.34179404591311e-03dB,-1.01720487905199e+00°)
1.76603782068614e+00	(-1.34798652494425e-03dB,-1.01954929876869e+00°)
1.77010895831740e+00	(-1.35420757827290e-03dB,-1.02189911960667e+00°)
1.77418948089014e+00	(-1.36045733770531e-03dB,-1.02425435399378e+00°)
1.77827941003890e+00	(-1.36673593565990e-03dB,-1.02661501438633e+00°)
1.78237876744807e+00	(-1.37304350517398e-03dB,-1.02898111326921e+00°)
1.78648757485203e+00	(-1.37938017988061e-03dB,-1.03135266315591e+00°)
1.79060585403527e+00	(-1.38574609404143e-03dB,-1.03372967658863e+00°)
1.79473362683250e+00	(-1.39214138253312e-03dB,-1.03611216613829e+00°)
1.79887091512876e+00	(-1.39856618085613e-03dB,-1.03850014440464e+00°)
1.80301774085955e+00	(-1.40502062512790e-03dB,-1.04089362401630e+00°)
1.80717412601090e+00	(-1.41150485210412e-03dB,-1.04329261763084e+00°)
1.81134009261958e+00	(-1.41801899916809e-03dB,-1.04569713793485e+00°)
1.81551566277311e+00	(-1.42456320433075e-03dB,-1.04810719764398e+00°)
1.81970085860996e+00	(-1.43113760624709e-03dB,-1.05052280950302e+00°)
1.82389570231961e+00	(-1.43774234419877e-03dB,-1.05294398628598e+00°)
1.82810021614272e+00	(-1.44437755813177e-03dB,-1.05537074079614e+00°)
1.83231442237119e+00	(-1.45104338861009e-03dB,-1.05780308586611e+00°)
1.83653834334832e+00	(-1.45773997686397e-03dB,-1.06024103435793e+00°)
1.84077200146893e+00	(-1.46446746477161e-03dB,-1.06268459916309e+00°)
1.84501541917945e+00	(-1.47122599486007e-03dB,-1.06513379320262e+00°)
1.84926861897805e+00	(-1.47801571031695e-03dB,-1.06758862942718e+00°)
1.85353162341479e+00	(-1.48483675499128e-03dB,-1.07004912081708e+00°)
1.85780445509167e+00	(-1.49168927338970e-03dB,-1.07251528038238e+00°)
1.86208713666284e+00	(-1.49857341069286e-03dB,-1.07498712116294e+00°)
1.86637969083464e+00	(-1.50548931274485e-03dB,-1.07746465622852e+00°)
1.87068214036577e+00	(-1.51243712606377e-03dB,-1.07994789867880e+00°)
1.87499450806739e+00	(-1.51941699784077e-03dB,-1.08243686164346e+00°)
1.87931681680324e+00	(-1.52642907594495e-03dB,-1.08493155828230e+00°)
1.88364908948977e+00	(-1.53347350893969e-03dB,-1.08743200178523e+00°)
1.88799134909627e+00	(-1.54055044605376e-03dB,-1.08993820537238e+00°)
1.89234361864495e+00	(-1.54766003721410e-03dB,-1.09245018229419e+00°)
1.89670592121112e+00	(-1.55480243304297e-03dB,-1.09496794583142e+00°)
1.90107827992327e+00	(-1.56197778484538e-03dB,-1.09749150929527e+00°)
1.90546071796322e+00	(-1.56918624462939e-03dB,-1.10002088602741e+00°)
